EXPLAIN
TAG	EISPOT
TITLE	LABEL	Potentiostatic EIS	Test Identifier
DATE	LABEL	2019-10-16	Date
TIME	LABEL	19:07:48	Time
NOTES	NOTES	1	Notes...
	
PSTAT	PSTAT	REF3000-13111	Potentiostat
VDC	POTEN	5.50000E-001	F	DC Voltage (V)
FREQINIT	QUANT	1.00000E+006	Initial Freq. (Hz)
FREQFINAL	QUANT	2.00000E-001	Final Freq. (Hz)
PTSPERDEC	QUANT	2.00000E+001	Points/decade
VAC	QUANT	1.00000E+001	AC Voltage (mV rms)
AREA	QUANT	1.00000E+000	Sample Area (cm^2)
SPEED	SELECTOR	0	Optimize for:
ZGUESS	QUANT	1.00000E+006	Estimated Z (ohms)
EOC	QUANT	1.010327	Open Circuit (V)
SEQUENCER	TOGGLE	TRUE	Run as Sequence
PSTATMODEL	IQUANT	5	Pstat Model
PSTATSECTION	LABEL	REF3000-13111	Pstat Section
PSTATSERIALNO	LABEL	13111	Pstat Serial Number
CTRLMODE	IQUANT	1	Control Mode
IESTAB	IQUANT	0	I/E Stability
CASPEED	IQUANT	1	Control Amp Speed
CONVENTION	IQUANT	1	Current Convention
ICHRANGE	IQUANT	2	Ich Range
ICHRANGEMODE	TOGGLE	F	Ich Auto Range
ICHOFFSETENABLE	TOGGLE	T	Ich Offset Enable
ICHOFFSET	QUANT	0	Ich Offset (V)
ICHFILTER	IQUANT	3	Ich Filter
VCHRANGE	IQUANT	2	Vch Range
VCHRANGEMODE	TOGGLE	F	Vch Auto Range
VCHOFFSETENABLE	TOGGLE	T	Vch Offset Enable
VCHOFFSET	QUANT	0	Vch Offset (V)
VCHFILTER	IQUANT	3	Vch Filter
ACHRANGE	IQUANT	2	Ach Range
ACHOFFSETENABLE	TOGGLE	F	Ach Offset Enable
ACHOFFSET	QUANT	0	Ach Offset (V)
ACHFILTER	IQUANT	3	Ach Filter
IERANGELOWERLIMIT	IQUANT	2	I/E Range Lower Limit
IERANGEMODE	TOGGLE	F	I/E AutoRange
IERANGE	IQUANT	11	I/E Range
POSFEEDENABLE	TOGGLE	F	Positive Feedback IR Comp
POSFEEDRESISTANCE	QUANT	0	Positive Feedback Resistance (ohm)
ACHSELECT	IQUANT	0	Ach Select
CABLEID	IQUANT	14	Cable ID
DCCALDATE	LABEL	2019-10-1	DC Calibration Date
ACCALDATE	LABEL	2019-10-1	AC Calibration Date
THERMOSELECT	IQUANT	1	Thermo Select
FRAMEWORKVERSION	QUANT	6.33	Framework Version
INSTRUMENTVERSION	LABEL	3.50	Instrument Version
COMPLIANCEVOLTAGE	IQUANT	0	Compliance Voltage
ZCURVE	TABLE
	Pt	Time	Freq	Zreal	Zimag	Zsig	Zmod	Zphz	Idc	Vdc	IERange
	#	s	Hz	ohm	ohm	V	ohm	°	A	V	#
	0	4	1000078	2.399945	1.439143	1	2.798369	30.9493	-0.0614651	0.5497237	11
	1	4	891328.1	2.359607	1.237003	1	2.664193	27.66537	-0.0610907	0.5499731	11
	2	5	794390.6	2.325719	1.063101	1	2.557177	24.56544	-0.0615282	0.5496255	11
	3	5	707953.1	2.314581	0.8966004	1	2.482172	21.1749	-0.0611807	0.5500529	11
	4	5	630984.4	2.295505	0.7604792	1	2.418195	18.32955	-0.0611059	0.550189	11
	5	5	562359.4	2.294329	0.6293169	1	2.379072	15.33855	-0.0613848	0.550108	11
	6	6	501234.4	2.297015	0.516565	1	2.354382	12.67413	-0.0610325	0.5499451	11
	7	6	446765.6	2.302062	0.4116831	1	2.338583	10.13916	-0.0614289	0.5499862	11
	8	6	398109.4	2.314377	0.3152713	1	2.335752	7.757251	-0.06118	0.5498551	11
	9	7	354890.6	2.331678	0.2310632	1	2.343099	5.659384	-0.0613892	0.5502428	11
	10	7	316265.6	2.348231	0.1486451	1	2.352931	3.622041	-0.0609453	0.5503129	11
	11	7	281859.4	2.372864	0.0737577	1	2.37401	1.780399	-0.0614853	0.5498916	11
	12	8	251203.1	2.404605	0.0077528	1	2.404617	0.1847289	-0.0609653	0.5502238	11
	13	8	223921.9	2.420427	-0.0535108	1	2.421018	-1.266489	-0.0610625	0.5502951	11
	14	9	199546.9	2.44204	-0.1088307	1	2.444463	-2.551725	-0.0613743	0.5502389	11
	15	9	177890.6	2.472478	-0.1629127	1	2.47784	-3.769795	-0.0612809	0.5503199	11
	16	9	158578.1	2.503018	-0.2132487	1	2.512086	-4.869648	-0.0614546	0.5499756	11
	17	10	141328.1	2.53844	-0.2608454	1	2.551806	-5.867016	-0.0614667	0.5501186	11
	18	10	125953.1	2.56762	-0.2999969	1	2.585086	-6.664139	-0.0611634	0.5503013	11
	19	10	112265.6	2.605209	-0.3422598	1	2.627595	-7.484381	-0.0614929	0.5503013	11
	20	11	100078.1	2.652881	-0.382706	1	2.680343	-8.208886	-0.0612603	0.5502625	11
	21	11	89203.13	2.690571	-0.4176564	1	2.722794	-8.823584	-0.0615613	0.5502244	11
	22	11	79453.13	2.738177	-0.4531344	1	2.775418	-9.396582	-0.0613131	0.5502167	11
	23	11	70828.13	2.778312	-0.4835059	1	2.82007	-9.87224	-0.0614445	0.5502394	11
	24	12	63140.62	2.830505	-0.5145127	1	2.876888	-10.3024	-0.0614071	0.550274	11
	25	12	56296.87	2.873621	-0.5409132	1	2.924088	-10.66027	-0.0613484	0.5502312	11
	26	12	50203.12	2.925545	-0.5675076	1	2.980081	-10.97809	-0.0614845	0.550216	11
	27	13	44671.88	2.977333	-0.592848	1	3.035783	-11.26147	-0.0612588	0.550272	11
	28	13	39890.62	3.028231	-0.6138073	1	3.089813	-11.45833	-0.0615547	0.550246	11
	29	13	35484.37	3.084246	-0.6349856	1	3.148933	-11.63352	-0.0612357	0.5502601	11
	30	14	31640.63	3.134093	-0.65374	1	3.201549	-11.78237	-0.0615875	0.5502157	11
	31	14	28265.63	3.193801	-0.6705522	1	3.263435	-11.85727	-0.0614117	0.5502682	11
	32	14	25171.88	3.251914	-0.6874149	1	3.323776	-11.93591	-0.0614191	0.5502735	11
	33	15	22453.13	3.306269	-0.6997507	1	3.379506	-11.94994	-0.0611924	0.550273	11
	34	15	20015.62	3.361496	-0.7124886	1	3.436174	-11.96706	-0.061587	0.5502658	11
	35	15	17859.38	3.420803	-0.7256858	1	3.496929	-11.97711	-0.0612596	0.5502761	11
	36	15	15890.62	3.476924	-0.7358437	1	3.553937	-11.94955	-0.0615376	0.5502679	11
	37	16	14203.12	3.541414	-0.7451792	1	3.618964	-11.88275	-0.061337	0.5502673	11
	38	16	12609.37	3.596028	-0.7538142	1	3.674187	-11.83915	-0.0614307	0.5502648	11
	39	16	11296.88	3.661086	-0.7648333	1	3.740123	-11.79989	-0.0614053	0.5502135	11
	40	17	10078.13	3.71353	-0.769541	1	3.792427	-11.70748	-0.0612844	0.550214	11
	41	17	8953.125	3.778749	-0.7784902	1	3.858107	-11.64109	-0.0615018	0.5502721	11
	42	17	8015.625	3.835668	-0.7830324	1	3.914778	-11.53811	-0.0612356	0.5502794	11
	43	18	7031.25	3.908343	-0.7925164	1	3.987885	-11.46276	-0.0615706	0.5502502	11
	44	18	6328.125	3.967566	-0.7943593	1	4.046305	-11.32168	-0.0612199	0.5502309	11
	45	18	5671.875	4.026993	-0.7986795	1	4.105431	-11.21798	-0.0615396	0.5502225	11
	46	18	5015.625	4.095018	-0.8050957	1	4.17341	-11.1227	-0.0613768	0.5502716	11
	47	19	4457.721	4.164738	-0.8071744	1	4.242237	-10.9686	-0.0615064	0.5502402	11
	48	19	3984.375	4.226195	-0.8084781	1	4.302832	-10.82993	-0.0612487	0.5502385	11
	49	19	3538.603	4.289384	-0.8065641	1	4.364557	-10.64939	-0.0616092	0.5502523	11
	50	20	3170.956	4.357296	-0.8028284	1	4.430639	-10.43962	-0.0612896	0.55023	11
	51	20	2803.309	4.422109	-0.8021457	1	4.494272	-10.28134	-0.0615184	0.5502723	11
	52	20	2527.573	4.490666	-0.7976664	1	4.56096	-10.07226	-0.0613066	0.5502684	11
	53	21	2251.838	4.549937	-0.787933	1	4.617658	-9.82473	-0.0614674	0.5502506	11
	54	21	1976.103	4.627716	-0.7806668	1	4.6931	-9.57529	-0.0613859	0.5502493	11
	55	21	1792.279	4.671193	-0.7701695	1	4.734258	-9.362492	-0.0613793	0.5502709	11
	56	22	1577.524	4.750357	-0.7617235	1	4.811041	-9.109873	-0.0613388	0.5502775	11
	57	22	1424.632	4.798296	-0.7482352	1	4.856285	-8.863191	-0.0615704	0.5502232	11
	58	22	1265.625	4.870995	-0.7319816	1	4.925686	-8.546093	-0.0612438	0.5502312	11
	59	23	1126.803	4.929778	-0.7172529	1	4.981682	-8.278104	-0.0615199	0.5502585	11
	60	23	998.264	4.985641	-0.6989821	1	5.034401	-7.980795	-0.0614841	0.5502415	11
	61	24	894.8864	5.043019	-0.6816587	1	5.08888	-7.697944	-0.0614244	0.5502075	11
	62	24	796.875	5.089747	-0.6603215	1	5.132402	-7.392015	-0.0612321	0.550271	11
	63	25	711.4955	5.141738	-0.6439129	1	5.181901	-7.138134	-0.0613585	0.5502262	11
	64	25	627.7902	5.198969	-0.6269951	1	5.23664	-6.876654	-0.0614019	0.5502666	11
	65	26	564.2361	5.232594	-0.6072484	1	5.267712	-6.619628	-0.0613982	0.5502759	11
	66	26	505.5147	5.287404	-0.5880505	1	5.320004	-6.3462	-0.0612068	0.550218	11
	67	27	444.5043	5.339744	-0.5691656	1	5.369992	-6.084209	-0.0612225	0.5502683	11
	68	27	397.9953	5.391179	-0.5537422	1	5.419542	-5.864435	-0.0612373	0.5502731	11
	69	28	357.5212	5.45501	-0.5351678	1	5.481199	-5.603114	-0.0605086	0.55027	11
	70	28	315.5048	5.468052	-0.5199643	1	5.492719	-5.431998	-0.0608693	0.5502728	11
	71	29	282.8664	5.482197	-0.5033464	1	5.505256	-5.245888	-0.0612606	0.5502716	11
	72	29	252.4038	5.502183	-0.4860923	1	5.523613	-5.048708	-0.0612049	0.5502692	11
	73	30	225.3606	5.545526	-0.4818751	1	5.566422	-4.966208	-0.0612283	0.5502728	11
	74	30	198.6229	5.572634	-0.4738666	1	5.592745	-4.860431	-0.0611038	0.5502707	11
	75	30	177.5568	5.605856	-0.4597273	1	5.624676	-4.688244	-0.0610332	0.5502715	11
	76	31	158.3615	5.641311	-0.4522908	1	5.659413	-4.58387	-0.0610786	0.5502684	11
	77	32	141.1898	5.674332	-0.4380212	1	5.691213	-4.414105	-0.0611151	0.5502714	11
	78	32	125.558	5.721756	-0.4281988	1	5.737757	-4.279863	-0.0612192	0.5502754	11
	79	33	111.6071	5.726917	-0.4332437	1	5.743281	-4.326209	-0.0612001	0.5502751	11
	80	33	100.4464	5.779647	-0.4130715	1	5.794389	-4.08798	-0.0613042	0.5502723	11
	81	34	89.00317	5.804623	-0.405095	1	5.818741	-3.992105	-0.0610427	0.5502723	11
	82	34	79.00281	5.834445	-0.41188	1	5.848966	-4.03807	-0.0610355	0.5502737	11
	83	35	71.02273	5.864756	-0.3975111	1	5.878212	-3.877558	-0.0610336	0.5502719	11
	84	35	63.3446	5.912806	-0.3741437	1	5.924632	-3.620669	-0.0610375	0.5502756	11
	85	36	54.50582	5.964888	-0.3725378	1	5.97651	-3.573773	-0.061321	0.5502729	11
	86	36	49.86702	5.954792	-0.3919348	1	5.967676	-3.765685	-0.0609793	0.5502707	11
	87	37	45.95588	6.056522	-0.3421739	1	6.066181	-3.233588	-0.0612997	0.5502819	11
	88	37	39.72458	6.062636	-0.2796432	1	6.069082	-2.640935	-0.0609589	0.5502761	11
	89	37	35.51136	5.991493	-0.2209418	1	5.995565	-2.111878	-0.0612476	0.5502772	11
	90	38	31.6723	5.985122	-0.2892947	1	5.992109	-2.767274	-0.0610457	0.5502759	11
	91	38	28.58232	5.977951	-0.1015538	1	5.978813	-0.973251	-0.0612686	0.550276	11
	92	38	24.93351	6.006452	-0.2116893	1	6.010181	-2.018477	-0.0611167	0.5502741	11
	93	39	22.11085	5.925255	-0.0579411	1	5.925539	-0.5602581	-0.0609037	0.5502812	11
	94	39	19.86229	6.454937	0.0065232	1	6.454941	0.0579021	-0.0612784	0.5502769	11
	95	39	17.75568	6.475516	0.1873921	1	6.478227	1.657594	-0.0611707	0.5502781	11
	96	39	15.83615	5.972875	-0.6741206	1	6.010796	-6.439363	-0.0610755	0.5502745	11
	97	39	14.20455	5.791991	-0.5523514	1	5.818269	-5.44752	-0.0612662	0.550282	11
	98	40	12.40079	6.515355	0.1789037	1	6.51781	1.572877	-0.0608938	0.5502794	11
	99	40	11.26803	6.663926	-0.4538625	1	6.679364	-3.896248	-0.0612372	0.5502845	11
	100	40	9.93114	6.058309	-0.2455755	1	6.063284	-2.321232	-0.0609963	0.5502798	11
	101	41	9.014423	6.585032	-0.2526263	1	6.589876	-2.197002	-0.0612307	0.5502797	11
	102	41	7.944915	6.146892	-0.4964687	1	6.166908	-4.61761	-0.0609373	0.5502784	11
	103	42	7.102273	6.802359	0.915324	1	6.863665	7.663676	-0.0606107	0.5502785	11
	104	42	6.317385	6.21672	-0.045445	1	6.216886	-0.418832	-0.0605474	0.5502766	11
	105	43	5.634015	6.488171	0.0362908	1	6.488273	0.3204734	-0.0609545	0.5502819	11
	106	44	5.008013	6.124498	0.1689647	1	6.126829	1.580294	-0.0611671	0.5502774	11
	107	45	4.507212	6.213878	-0.0183042	1	6.213905	-0.1687753	-0.0611077	0.5502735	11
	108	46	3.945707	6.334751	0.0540844	1	6.334982	0.489164	-0.0611825	0.5502742	11
	109	47	3.535068	6.073338	-0.0214528	1	6.073376	-0.2023842	-0.0611702	0.5502704	11
	110	48	3.158693	6.124339	-0.0663531	1	6.124699	-0.6207374	-0.061134	0.55028	11
	111	49	2.817007	6.146979	0.089048	1	6.147624	0.8299548	-0.061141	0.5502754	11
	112	50	2.504006	6.226202	-0.0599221	1	6.226491	-0.5514075	-0.061132	0.5502738	11
	113	51	2.253606	6.06621	-0.1251675	1	6.067502	-1.182049	-0.0611438	0.5502706	11
	114	53	1.998082	6.049723	-0.2036622	1	6.05315	-1.928118	-0.061131	0.5502744	11
	115	54	1.767534	6.441739	0.2345628	1	6.446008	2.085388	-0.061191	0.55029	11
	116	56	1.584686	5.857118	-0.2085137	1	5.860828	-2.038872	-0.0610683	0.5502532	11
	117	58	1.420455	5.681609	-0.1329854	1	5.683165	-1.340837	-0.0610532	0.5502713	11
	118	62	1.266892	6.421242	-0.2784953	1	6.427279	-2.483416	-0.0610101	0.5502861	11
	119	65	1.120875	6.142095	0.1780366	1	6.144675	1.660328	-0.061021	0.550304	11
	120	67	0.999041	6.607786	-0.0902846	1	6.608403	-0.7828049	-0.0610523	0.5502924	11
	121	69	0.8837669	5.934696	0.0635959	1	5.935037	0.613955	-0.061031	0.5494183	11
	122	73	0.7923428	6.115648	-0.1655005	1	6.117887	-1.550149	-0.061002	0.5494182	11
	123	77	0.7102273	6.043123	0.088866	1	6.043776	0.8424916	-0.0609543	0.5494158	11
	124	81	0.633446	6.529456	0.1320155	1	6.530791	1.158274	-0.0607462	0.5494164	11
	125	87	0.564759	6.105299	0.1849505	1	6.1081	1.735155	-0.0610436	0.5494151	11
	126	93	0.5040323	6.174849	-0.0175997	1	6.174874	-0.1633053	-0.0609203	0.5494168	11
	127	99	0.4507211	5.61686	-0.1327926	1	5.618429	-1.354322	-0.0605782	0.5494162	11
	128	108	0.400641	6.184692	0.0278444	1	6.184754	0.2579526	-0.0607671	0.5494149	11
	129	115	0.3551136	6.241532	0.0086194	1	6.241538	0.0791238	-0.0607715	0.5494115	11
	130	132	0.316723	6.11399	0.0256699	1	6.114044	0.2405578	-0.060651	0.5494133	11
	131	142	0.2823795	6.179832	0.0627832	1	6.180151	0.5820688	-0.0606166	0.5494124	11
	132	160	0.2520161	6.23071	-0.0042012	1	6.230711	-0.0386326	-0.0605536	0.5494103	11
	133	172	0.2242823	6.461427	0.0858216	1	6.461997	0.7609658	-0.0603452	0.5494164	11
	134	190	0.2003205	5.946755	-0.2711908	1	5.952935	-2.61106	-0.0603388	0.5494144	11
