EXPLAIN
TAG	EISPOT
TITLE	LABEL	Potentiostatic EIS	Test Identifier
DATE	LABEL	2019-10-16	Date
TIME	LABEL	19:01:09	Time
NOTES	NOTES	1	Notes...
	
PSTAT	PSTAT	REF3000-13111	Potentiostat
VDC	POTEN	0.00000E+000	T	DC Voltage (V)
FREQINIT	QUANT	1.00000E+006	Initial Freq. (Hz)
FREQFINAL	QUANT	2.00000E-001	Final Freq. (Hz)
PTSPERDEC	QUANT	2.00000E+001	Points/decade
VAC	QUANT	1.00000E+001	AC Voltage (mV rms)
AREA	QUANT	1.00000E+000	Sample Area (cm^2)
SPEED	SELECTOR	0	Optimize for:
ZGUESS	QUANT	1.00000E+006	Estimated Z (ohms)
EOC	QUANT	1.009802	Open Circuit (V)
SEQUENCER	TOGGLE	TRUE	Run as Sequence
PSTATMODEL	IQUANT	5	Pstat Model
PSTATSECTION	LABEL	REF3000-13111	Pstat Section
PSTATSERIALNO	LABEL	13111	Pstat Serial Number
CTRLMODE	IQUANT	1	Control Mode
IESTAB	IQUANT	0	I/E Stability
CASPEED	IQUANT	1	Control Amp Speed
CONVENTION	IQUANT	1	Current Convention
ICHRANGE	IQUANT	2	Ich Range
ICHRANGEMODE	TOGGLE	F	Ich Auto Range
ICHOFFSETENABLE	TOGGLE	T	Ich Offset Enable
ICHOFFSET	QUANT	0	Ich Offset (V)
ICHFILTER	IQUANT	3	Ich Filter
VCHRANGE	IQUANT	2	Vch Range
VCHRANGEMODE	TOGGLE	F	Vch Auto Range
VCHOFFSETENABLE	TOGGLE	T	Vch Offset Enable
VCHOFFSET	QUANT	0	Vch Offset (V)
VCHFILTER	IQUANT	3	Vch Filter
ACHRANGE	IQUANT	2	Ach Range
ACHOFFSETENABLE	TOGGLE	F	Ach Offset Enable
ACHOFFSET	QUANT	0	Ach Offset (V)
ACHFILTER	IQUANT	3	Ach Filter
IERANGELOWERLIMIT	IQUANT	2	I/E Range Lower Limit
IERANGEMODE	TOGGLE	F	I/E AutoRange
IERANGE	IQUANT	11	I/E Range
POSFEEDENABLE	TOGGLE	F	Positive Feedback IR Comp
POSFEEDRESISTANCE	QUANT	0	Positive Feedback Resistance (ohm)
ACHSELECT	IQUANT	0	Ach Select
CABLEID	IQUANT	14	Cable ID
DCCALDATE	LABEL	2019-10-1	DC Calibration Date
ACCALDATE	LABEL	2019-10-1	AC Calibration Date
THERMOSELECT	IQUANT	1	Thermo Select
FRAMEWORKVERSION	QUANT	6.33	Framework Version
INSTRUMENTVERSION	LABEL	3.50	Instrument Version
COMPLIANCEVOLTAGE	IQUANT	0	Compliance Voltage
ZCURVE	TABLE
	Pt	Time	Freq	Zreal	Zimag	Zsig	Zmod	Zphz	Idc	Vdc	IERange
	#	s	Hz	ohm	ohm	V	ohm	°	A	V	#
	0	4	1000078	2.477397	1.092873	1	2.707742	23.80408	0.0002719	1.008291	10
	1	4	891328.1	2.427047	0.9302397	1	2.599212	20.97085	-0.0001967	1.008239	10
	2	5	794390.6	2.393222	0.7854177	1	2.518807	18.16902	0.0001239	1.00845	10
	3	5	707953.1	2.377291	0.6515203	1	2.464953	15.32616	-6.907751E-005	1.00858	10
	4	5	630984.4	2.359955	0.5305516	1	2.418858	12.67025	-5.968934E-005	1.008671	10
	5	5	562359.4	2.358995	0.4208217	1	2.396236	10.11461	5.340245E-005	1.0088	10
	6	6	501234.4	2.359439	0.3243847	1	2.381633	7.828166	-2.898813E-006	1.008885	10
	7	6	446765.6	2.370895	0.2284708	1	2.381878	5.504298	-6.706808E-005	1.008881	10
	8	6	398109.4	2.383404	0.1458584	1	2.387863	3.501991	7.206308E-005	1.009008	10
	9	7	354890.6	2.401031	0.0674514	1	2.401978	1.609169	-0.0001813	1.008845	10
	10	7	316265.6	2.433252	-0.0092055	1	2.433269	-0.2167608	-0.0001413	1.008993	10
	11	7	281859.4	2.461371	-0.0727789	1	2.462446	-1.693655	-2.698252E-005	1.008932	10
	12	8	251203.1	2.481366	-0.1317861	1	2.484864	-3.04014	0.0002052	1.00913	10
	13	8	223921.9	2.505958	-0.1858054	1	2.512837	-4.240463	2.108089E-005	1.009041	10
	14	8	199546.9	2.534842	-0.2351026	1	2.545721	-5.298934	0.0001128	1.009144	10
	15	8	177890.6	2.572689	-0.2846585	1	2.588389	-6.313883	4.899083E-005	1.009203	10
	16	9	158578.1	2.605808	-0.3270849	1	2.626256	-7.154434	0.0001202	1.009203	10
	17	9	141328.1	2.648926	-0.37046	1	2.674705	-7.961346	-6.318892E-005	1.009023	10
	18	9	125953.1	2.689051	-0.4080321	1	2.719832	-8.628147	0.0001324	1.009126	10
	19	10	112265.6	2.733726	-0.4463507	1	2.769925	-9.273176	4.955768E-005	1.009283	10
	20	10	100078.1	2.791074	-0.4757651	1	2.831332	-9.67363	0.0001414	1.009204	10
	21	10	89203.13	2.83282	-0.5067529	1	2.877789	-10.14216	8.013716E-005	1.009239	10
	22	11	79453.13	2.88552	-0.5378714	1	2.935223	-10.55896	-2.354112E-005	1.009207	10
	23	11	70828.13	2.931159	-0.5652774	1	2.985168	-10.91555	9.277286E-005	1.009227	10
	24	11	63140.62	2.984694	-0.592643	1	3.042963	-11.23062	-0.0001428	1.009205	10
	25	12	56296.87	3.036427	-0.6165684	1	3.098394	-11.47826	7.228077E-005	1.00924	10
	26	12	50203.12	3.085903	-0.6374998	1	3.151064	-11.67222	-0.000138	1.009209	10
	27	12	44671.88	3.14644	-0.6594338	1	3.2148	-11.83678	-7.461432E-005	1.009205	10
	28	12	39890.62	3.19886	-0.6767073	1	3.269654	-11.94461	-6.411831E-005	1.009239	10
	29	13	35484.37	3.256222	-0.6945752	1	3.329476	-12.04114	-9.476191E-005	1.009229	10
	30	13	31640.63	3.307354	-0.7098181	1	3.382667	-12.11296	0.0001189	1.009216	10
	31	13	28265.63	3.359087	-0.7246671	1	3.436366	-12.17403	-0.0001334	1.009245	10
	32	14	25171.88	3.417151	-0.7405288	1	3.49647	-12.22746	7.493825E-006	1.00922	10
	33	14	22453.13	3.476184	-0.7562493	1	3.557495	-12.27354	-0.000116	1.009221	10
	34	14	20015.62	3.533654	-0.7702101	1	3.616619	-12.29611	5.098872E-005	1.009236	10
	35	15	17859.38	3.588658	-0.7865214	1	3.673838	-12.36198	-0.0001568	1.009225	10
	36	15	15890.62	3.646641	-0.7980417	1	3.732943	-12.34417	0.0000973	1.009226	10
	37	15	14203.12	3.699995	-0.8100231	1	3.787625	-12.34868	-6.935385E-005	1.009237	10
	38	15	12609.37	3.766829	-0.8306123	1	3.85732	-12.43513	1.215749E-005	1.009239	10
	39	16	11296.88	3.818598	-0.8432145	1	3.910589	-12.4521	3.186214E-005	1.009244	10
	40	16	10078.13	3.887833	-0.8635534	1	3.982583	-12.52306	-5.32286E-005	1.009223	10
	41	16	8953.125	3.949452	-0.8807431	1	4.046465	-12.57148	0.0000956	1.009245	10
	42	17	8015.625	4.011353	-0.8960527	1	4.110215	-12.59196	5.911894E-006	1.009236	10
	43	17	7031.25	4.086508	-0.9192443	1	4.188622	-12.67745	7.23768E-005	1.009241	10
	44	17	6328.125	4.142721	-0.9348332	1	4.246887	-12.7162	-6.754699E-005	1.009227	10
	45	18	5671.875	4.212977	-0.955028	1	4.319867	-12.77236	-2.208351E-005	1.009247	10
	46	18	5015.625	4.280969	-0.974546	1	4.390493	-12.8246	-2.546027E-006	1.009241	10
	47	18	4457.721	4.367876	-0.997974	1	4.480434	-12.87004	-0.0001194	1.009203	10
	48	19	3984.375	4.435452	-1.017564	1	4.550678	-12.92099	2.536419E-005	1.009241	10
	49	19	3538.603	4.523682	-1.041083	1	4.641934	-12.96041	-0.0001781	1.009224	10
	50	19	3170.956	4.60392	-1.062706	1	4.724978	-12.99773	6.069491E-005	1.009243	10
	51	19	2803.309	4.681531	-1.081483	1	4.804825	-13.00774	-0.0001599	1.009246	10
	52	20	2527.573	4.755106	-1.100111	1	4.880704	-13.0264	-0.0001685	1.009234	10
	53	20	2251.838	4.902765	-1.137045	1	5.032889	-13.05716	0.0002142	1.009232	10
	54	21	1976.103	4.955003	-1.145513	1	5.085691	-13.01712	5.534691E-005	1.009225	10
	55	21	1792.279	5.007856	-1.149782	1	5.138154	-12.93076	-1.742374E-005	1.009241	10
	56	22	1577.524	5.111339	-1.16932	1	5.243385	-12.8858	-2.611384E-005	1.009229	10
	57	22	1424.632	5.182055	-1.179601	1	5.314617	-12.82383	0.0000971	1.009229	10
	58	23	1265.625	5.272519	-1.193468	1	5.405906	-12.75433	5.526422E-005	1.009229	10
	59	23	1126.803	5.363082	-1.203434	1	5.496445	-12.64723	-8.219701E-005	1.009234	10
	60	24	998.264	5.469543	-1.21973	1	5.603896	-12.57148	0.0001111	1.009249	10
	61	24	894.8864	5.544317	-1.223649	1	5.677743	-12.44585	-5.462379E-005	1.009226	10
	62	24	796.875	5.652539	-1.235725	1	5.786036	-12.33166	9.930342E-006	1.009251	10
	63	25	711.4955	5.727324	-1.236651	1	5.859313	-12.18433	9.491372E-005	1.009244	10
	64	25	627.7902	5.842145	-1.245195	1	5.973372	-12.03198	-6.852847E-005	1.009219	10
	65	25	564.2361	5.923006	-1.252875	1	6.054064	-11.94354	0.0001432	1.009218	10
	66	25	505.5147	6.012994	-1.260438	1	6.14368	-11.83887	-9.379045E-005	1.009247	10
	67	26	444.5043	6.129788	-1.273481	1	6.260675	-11.73641	0.0001072	1.009256	10
	68	26	397.9953	6.201244	-1.274629	1	6.330885	-11.61504	-0.0001016	1.009261	10
	69	26	357.5212	6.3056	-1.289266	1	6.436054	-11.55563	-3.50456E-005	1.009259	10
	70	27	315.5048	6.385912	-1.288586	1	6.514625	-11.40828	-2.634276E-005	1.009266	10
	71	27	282.8664	6.492108	-1.303578	1	6.621691	-11.35368	-0.0000982	1.009259	10
	72	27	252.4038	6.579627	-1.314518	1	6.709653	-11.29815	0.0001015	1.009257	10
	73	28	225.3606	6.675089	-1.323227	1	6.80498	-11.21258	-0.0000956	1.009261	10
	74	28	198.6229	6.786543	-1.347234	1	6.918974	-11.22813	2.668658E-005	1.009256	10
	75	28	177.5568	6.860382	-1.345444	1	6.99107	-11.09591	-8.593502E-005	1.009255	10
	76	29	158.3615	6.994427	-1.374386	1	7.12818	-11.11683	-3.458662E-005	1.009251	10
	77	29	141.1898	7.002722	-1.361099	1	7.133772	-10.99927	1.497855E-006	1.009256	9
	78	29	125.558	7.128995	-1.357408	1	7.257074	-10.78046	-0.0001211	1.009276	9
	79	30	111.6071	7.278503	-1.402325	1	7.412363	-10.90536	7.462722E-005	1.009253	10
	80	30	100.4464	7.341111	-1.37889	1	7.469488	-10.63799	-0.0001153	1.009271	9
	81	30	89.00317	7.446189	-1.408324	1	7.5782	-10.71004	8.537216E-005	1.009243	9
	82	30	79.00281	7.559463	-1.403331	1	7.688616	-10.51661	-9.111688E-005	1.009265	9
	83	31	71.02273	7.667344	-1.421659	1	7.79803	-10.50434	4.540135E-005	1.009246	9
	84	31	63.3446	7.778174	-1.420377	1	7.906798	-10.34879	-0.0001268	1.009269	9
	85	31	54.50582	8.017657	-1.436644	1	8.145353	-10.15874	7.471725E-005	1.009241	9
	86	32	49.86702	7.983212	-1.442406	1	8.112473	-10.2417	-0.0001153	1.009265	9
	87	32	45.95588	8.200475	-1.477912	1	8.332587	-10.21634	2.001054E-006	1.00926	9
	88	33	39.72458	8.233311	-1.401345	1	8.351717	-9.65942	-8.53368E-005	1.009269	9
	89	33	35.51136	8.356606	-1.335036	1	8.462575	-9.076764	-3.695559E-005	1.009259	9
	90	33	31.6723	8.594821	-1.317277	1	8.695181	-8.713577	-2.990194E-005	1.009258	9
	91	33	28.58232	8.957682	-1.536621	1	9.088524	-9.73391	-0.0001596	1.009274	9
	92	34	24.93351	8.63304	-1.443114	1	8.752826	-9.489919	5.646149E-006	1.009256	9
	93	34	22.11085	8.85692	-0.6920157	1	8.883914	-4.467601	-5.607336E-005	1.009269	9
	94	34	19.86229	9.7475	-1.457394	1	9.85585	-8.503565	-0.000123	1.009272	9
	95	34	17.75568	9.77827	-1.127842	1	9.8431	-6.579516	-2.026966E-006	1.009254	9
	96	35	15.83615	8.354058	-1.441823	1	8.477567	-9.79218	-9.216458E-005	1.009267	9
	97	35	14.20455	8.373521	-1.055438	1	8.439775	-7.183943	-0.0001761	1.009281	9
	98	35	12.40079	9.69034	-1.839324	1	9.86336	-10.74746	6.59571E-005	1.009247	9
	99	36	11.26803	9.142143	-1.970135	1	9.352016	-12.16128	-0.0001332	1.009277	9
	100	36	9.93114	9.91713	-0.8829657	1	9.95636	-5.087879	5.686513E-005	1.009251	9
	101	36	9.014423	9.55833	-1.116834	1	9.62336	-6.664449	-8.687936E-005	1.009274	9
	102	37	7.944915	9.84063	-0.8773541	1	9.87966	-5.094809	-4.705495E-005	1.009264	9
	103	37	7.102273	9.57998	-0.7563651	1	9.60979	-4.51429	-0.0001115	1.009273	9
	104	38	6.317385	9.85343	-1.088965	1	9.91342	-6.306525	-8.388549E-005	1.009272	9
	105	39	5.634015	10.19902	-0.0958799	1	10.19947	-0.5386153	-0.0000952	1.009269	9
	106	40	5.008013	9.9028	-0.8907177	1	9.94278	-5.139699	-3.768391E-005	1.009268	9
	107	41	4.507212	9.96641	-0.613519	1	9.98528	-3.522606	-4.800503E-005	1.009266	9
	108	42	3.945707	10.12651	-0.4238971	1	10.13538	-2.397009	1.739084E-005	1.009255	9
	109	42	3.535068	10.20235	-0.9040649	1	10.24233	-5.063945	-1.640569E-006	1.009264	9
	110	44	3.158693	10.13611	-0.5603809	1	10.15158	-3.164411	-1.918201E-005	1.009262	9
	111	45	2.817007	10.3142	-0.8001779	1	10.34519	-4.436133	-0.0000999	1.009273	9
	112	46	2.504006	10.25054	-0.5928131	1	10.26767	-3.309863	-9.109318E-005	1.00927	9
	113	47	2.253606	9.93833	-0.5894316	1	9.9558	-3.394173	-0.0001308	1.009269	9
	114	49	1.998082	10.0907	-0.3625747	1	10.09721	-2.057842	-5.091127E-005	1.009283	9
	115	50	1.767534	9.83587	-1.050682	1	9.89182	-6.097298	-0.0001009	1.009261	9
	116	52	1.584686	10.10029	0.3248149	1	10.10551	1.841938	-0.0001183	1.00927	9
	117	54	1.420455	9.80863	0.1866983	1	9.81041	1.090441	-0.0001386	1.009277	9
	118	56	1.266892	10.5488	-1.339773	1	10.63354	-7.23822	-0.0001331	1.009251	9
	119	59	1.120875	10.11063	0.0587083	1	10.1108	0.3326897	-0.0001333	1.009246	9
	120	62	0.999041	10.16793	0.2686545	1	10.17148	1.513503	-0.0001438	1.009266	9
	121	64	0.8837669	10.17708	-0.0510825	1	10.17721	-0.287586	-0.0001926	1.008423	9
	122	67	0.7923428	10.72137	0.3638496	1	10.72754	1.943692	-0.000196	1.008424	9
	123	71	0.7102273	10.68513	-0.1553678	1	10.68625	-0.8330544	-0.0002247	1.008429	9
	124	75	0.633446	10.00361	-0.5189831	1	10.01707	-2.969817	-6.29124E-005	1.008413	9
	125	80	0.564759	10.49323	-0.291873	1	10.49729	-1.593292	-0.0001976	1.008428	9
	126	85	0.5040323	10.00956	-0.3174726	1	10.01459	-1.816638	-0.000117	1.008417	9
	127	91	0.4507211	10.40024	-0.1254072	1	10.401	-0.6908448	-0.0001239	1.008413	9
	128	100	0.400641	10.35914	-0.118277	1	10.35981	-0.6541547	-0.0001253	1.008413	9
	129	108	0.3551136	10.54815	-0.265595	1	10.5515	-1.442362	-0.0001782	1.008424	9
	130	116	0.316723	10.78727	-0.1862385	1	10.78888	-0.989094	-0.0002081	1.008426	9
	131	129	0.2823795	10.52037	-0.1502406	1	10.52144	-0.818181	-0.0001982	1.008425	9
	132	140	0.2520161	10.8748	-0.08519	1	10.87514	-0.4488291	-0.0002816	1.00843	9
	133	152	0.2242823	10.6397	-0.2247458	1	10.64207	-1.210097	-0.0003034	1.008434	9
	134	165	0.2003205	10.67746	0.2826644	1	10.68121	1.516436	-0.0001489	1.008413	9
