EXPLAIN
TAG	EISPOT
TITLE	LABEL	Potentiostatic EIS	Test Identifier
DATE	LABEL	2019-10-16	Date
TIME	LABEL	19:04:36	Time
NOTES	NOTES	1	Notes...
	
PSTAT	PSTAT	REF3000-13111	Potentiostat
VDC	POTEN	7.50000E-001	F	DC Voltage (V)
FREQINIT	QUANT	1.00000E+006	Initial Freq. (Hz)
FREQFINAL	QUANT	2.00000E-001	Final Freq. (Hz)
PTSPERDEC	QUANT	2.00000E+001	Points/decade
VAC	QUANT	1.00000E+001	AC Voltage (mV rms)
AREA	QUANT	1.00000E+000	Sample Area (cm^2)
SPEED	SELECTOR	0	Optimize for:
ZGUESS	QUANT	1.00000E+006	Estimated Z (ohms)
EOC	QUANT	1.009836	Open Circuit (V)
SEQUENCER	TOGGLE	TRUE	Run as Sequence
PSTATMODEL	IQUANT	5	Pstat Model
PSTATSECTION	LABEL	REF3000-13111	Pstat Section
PSTATSERIALNO	LABEL	13111	Pstat Serial Number
CTRLMODE	IQUANT	1	Control Mode
IESTAB	IQUANT	0	I/E Stability
CASPEED	IQUANT	1	Control Amp Speed
CONVENTION	IQUANT	1	Current Convention
ICHRANGE	IQUANT	2	Ich Range
ICHRANGEMODE	TOGGLE	F	Ich Auto Range
ICHOFFSETENABLE	TOGGLE	T	Ich Offset Enable
ICHOFFSET	QUANT	0	Ich Offset (V)
ICHFILTER	IQUANT	3	Ich Filter
VCHRANGE	IQUANT	2	Vch Range
VCHRANGEMODE	TOGGLE	F	Vch Auto Range
VCHOFFSETENABLE	TOGGLE	T	Vch Offset Enable
VCHOFFSET	QUANT	0	Vch Offset (V)
VCHFILTER	IQUANT	3	Vch Filter
ACHRANGE	IQUANT	2	Ach Range
ACHOFFSETENABLE	TOGGLE	F	Ach Offset Enable
ACHOFFSET	QUANT	0	Ach Offset (V)
ACHFILTER	IQUANT	3	Ach Filter
IERANGELOWERLIMIT	IQUANT	2	I/E Range Lower Limit
IERANGEMODE	TOGGLE	F	I/E AutoRange
IERANGE	IQUANT	11	I/E Range
POSFEEDENABLE	TOGGLE	F	Positive Feedback IR Comp
POSFEEDRESISTANCE	QUANT	0	Positive Feedback Resistance (ohm)
ACHSELECT	IQUANT	0	Ach Select
CABLEID	IQUANT	14	Cable ID
DCCALDATE	LABEL	2019-10-1	DC Calibration Date
ACCALDATE	LABEL	2019-10-1	AC Calibration Date
THERMOSELECT	IQUANT	1	Thermo Select
FRAMEWORKVERSION	QUANT	6.33	Framework Version
INSTRUMENTVERSION	LABEL	3.50	Instrument Version
COMPLIANCEVOLTAGE	IQUANT	0	Compliance Voltage
ZCURVE	TABLE
	Pt	Time	Freq	Zreal	Zimag	Zsig	Zmod	Zphz	Idc	Vdc	IERange
	#	s	Hz	ohm	ohm	V	ohm	°	A	V	#
	0	3	1000078	2.413724	1.419895	1	2.800387	30.46655	-0.0306133	0.7495505	11
	1	4	891328.1	2.362672	1.218499	1	2.658375	27.28149	-0.0306913	0.7495707	11
	2	4	794390.6	2.343716	1.03475	1	2.561974	23.82145	-0.0310233	0.7495831	11
	3	4	707953.1	2.335203	0.8716376	1	2.492574	20.46859	-0.0302459	0.7496212	11
	4	5	630984.4	2.333817	0.7320484	1	2.445935	17.41508	-0.0305066	0.7494813	11
	5	5	562359.4	2.324869	0.6019786	1	2.40154	14.51678	-0.0303084	0.7497452	11
	6	5	501234.4	2.321004	0.4879958	1	2.37175	11.87361	-0.0307095	0.7497955	11
	7	6	446765.6	2.328621	0.380493	1	2.359502	9.280032	-0.0305875	0.7497697	11
	8	6	398109.4	2.336274	0.283098	1	2.353363	6.909131	-0.0307404	0.7498565	11
	9	6	354890.6	2.353594	0.197217	1	2.361842	4.789853	-0.0307225	0.7499324	11
	10	6	316265.6	2.369272	0.116397	1	2.372129	2.812553	-0.0305712	0.7499508	11
	11	7	281859.4	2.394711	0.0441605	1	2.395118	1.056462	-0.0308179	0.7498613	11
	12	7	251203.1	2.418081	-0.0241175	1	2.418201	-0.5714399	-0.0305789	0.7499534	11
	13	7	223921.9	2.446767	-0.0877223	1	2.448339	-2.053307	-0.030885	0.7499568	11
	14	8	199546.9	2.480237	-0.1479064	1	2.484643	-3.412732	-0.0305829	0.749974	11
	15	8	177890.6	2.509244	-0.2027718	1	2.517424	-4.620028	-0.0307661	0.7499533	11
	16	8	158578.1	2.547267	-0.2539141	1	2.559891	-5.692497	-0.0307184	0.7499993	11
	17	9	141328.1	2.58313	-0.2998722	1	2.600477	-6.621752	-0.0307148	0.7498745	11
	18	9	125953.1	2.61728	-0.343164	1	2.639681	-7.469712	-0.0308853	0.7497743	11
	19	9	112265.6	2.662305	-0.3879153	1	2.690418	-8.290033	-0.0306244	0.7499849	11
	20	9	100078.1	2.709243	-0.4238851	1	2.742202	-8.892343	-0.0309406	0.7499016	11
	21	10	89203.13	2.753854	-0.4613586	1	2.792233	-9.51055	-0.0306396	0.7499602	11
	22	10	79453.13	2.800602	-0.4942571	1	2.843881	-10.00864	-0.0309672	0.7499563	11
	23	10	70828.13	2.851187	-0.5260218	1	2.899304	-10.45308	-0.0307116	0.7499068	11
	24	11	63140.62	2.896363	-0.5537414	1	2.948821	-10.82349	-0.0308499	0.7499295	11
	25	11	56296.87	2.951162	-0.5833519	1	3.008265	-11.18143	-0.0308379	0.7499185	11
	26	11	50203.12	2.998293	-0.6061093	1	3.058943	-11.42841	-0.0307635	0.7499515	11
	27	12	44671.88	3.056938	-0.6316814	1	3.121521	-11.67519	-0.0309103	0.7498969	11
	28	12	39890.62	3.106152	-0.6522568	1	3.173896	-11.85916	-0.0307029	0.7498975	11
	29	12	35484.37	3.169893	-0.6759847	1	3.241169	-12.0381	-0.0307568	0.7499491	11
	30	13	31640.63	3.219426	-0.6921884	1	3.292997	-12.13408	-0.0309121	0.7499465	11
	31	13	28265.63	3.275233	-0.7105873	1	3.351431	-12.24105	-0.030826	0.7499514	11
	32	13	25171.88	3.332817	-0.728922	1	3.411597	-12.33693	-0.0308229	0.7499212	11
	33	14	22453.13	3.385224	-0.7456939	1	3.466381	-12.42267	-0.0306386	0.7499442	11
	34	14	20015.62	3.44359	-0.7610536	1	3.526686	-12.46238	-0.0309211	0.7499466	11
	35	14	17859.38	3.502438	-0.77921	1	3.588069	-12.54269	-0.0307068	0.7499432	11
	36	15	15890.62	3.558683	-0.7938958	1	3.646162	-12.57601	-0.0309876	0.7499401	11
	37	15	14203.12	3.627954	-0.8126588	1	3.717858	-12.62579	-0.0306911	0.7499253	11
	38	15	12609.37	3.680824	-0.8292345	1	3.773075	-12.69592	-0.0308498	0.7499514	11
	39	16	11296.88	3.745732	-0.8475128	1	3.840415	-12.74913	-0.0308655	0.7499306	11
	40	16	10078.13	3.80141	-0.8615341	1	3.897815	-12.76954	-0.0307961	0.7499468	11
	41	16	8953.125	3.872909	-0.8863278	1	3.973034	-12.89035	-0.0309504	0.7499464	11
	42	16	8015.625	3.936379	-0.9042559	1	4.038906	-12.9374	-0.0307232	0.7499144	11
	43	17	7031.25	4.012335	-0.9275517	1	4.118153	-13.01669	-0.0309528	0.7499004	11
	44	17	6328.125	4.083938	-0.9475154	1	4.192414	-13.06211	-0.0307362	0.7499489	11
	45	17	5671.875	4.148516	-0.966088	1	4.25952	-13.10915	-0.0309909	0.7499402	11
	46	18	5015.625	4.234624	-0.989131	1	4.348612	-13.14752	-0.0307638	0.7499487	11
	47	18	4457.721	4.30779	-1.004692	1	4.423399	-13.12823	-0.03072	0.7499524	11
	48	18	3984.375	4.392592	-1.023233	1	4.510197	-13.11292	-0.0309287	0.7499031	11
	49	19	3538.603	4.477437	-1.040212	1	4.596682	-13.07912	-0.0307185	0.7499197	11
	50	19	3170.956	4.571411	-1.053654	1	4.691267	-12.97931	-0.0309789	0.7499471	11
	51	19	2803.309	4.664486	-1.063993	1	4.784298	-12.8496	-0.0305517	0.7499341	11
	52	20	2527.573	4.744106	-1.069532	1	4.863172	-12.70462	-0.0309284	0.7499419	11
	53	20	2251.838	4.833509	-1.072787	1	4.951129	-12.51382	-0.0306483	0.7499543	11
	54	20	1976.103	4.939603	-1.072658	1	5.054728	-12.25183	-0.0307001	0.7498889	11
	55	21	1792.279	5.028064	-1.070795	1	5.14082	-12.02232	-0.030893	0.7499471	11
	56	21	1577.524	5.135493	-1.061118	1	5.243974	-11.67442	-0.030873	0.7499453	11
	57	22	1424.632	5.20754	-1.049465	1	5.312236	-11.39408	-0.030588	0.7499027	11
	58	22	1265.625	5.305988	-1.035559	1	5.406097	-11.04348	-0.0308027	0.7498981	11
	59	23	1126.803	5.391098	-1.014249	1	5.485675	-10.65474	-0.0306312	0.7498902	11
	60	23	998.264	5.489478	-0.994071	1	5.578758	-10.26427	-0.0305195	0.7499371	11
	61	24	894.8864	5.568091	-0.970224	1	5.651989	-9.88439	-0.0306025	0.7499583	11
	62	24	796.875	5.635833	-0.9416196	1	5.713953	-9.48521	-0.0306273	0.7499477	11
	63	25	711.4955	5.818697	-0.9397765	1	5.8941	-9.174602	-0.0296673	0.7499583	11
	64	25	627.7902	5.84231	-0.8957448	1	5.91058	-8.716727	-0.0301782	0.7499293	11
	65	26	564.2361	5.862119	-0.8573502	1	5.924482	-8.320666	-0.0303085	0.7499632	11
	66	26	505.5147	5.915172	-0.8294017	1	5.973036	-7.981748	-0.0304956	0.7499158	11
	67	26	444.5043	5.968396	-0.8002569	1	6.021807	-7.636809	-0.0303159	0.7499565	11
	68	27	397.9953	6.021894	-0.7751543	1	6.071579	-7.334931	-0.0305496	0.7499607	11
	69	27	357.5212	6.065665	-0.7534899	1	6.112286	-7.081129	-0.0306718	0.7499585	11
	70	28	315.5048	6.113884	-0.7287916	1	6.157168	-6.797736	-0.0305064	0.7499557	11
	71	28	282.8664	6.15125	-0.7120013	1	6.19232	-6.602549	-0.0307579	0.7499552	11
	72	28	252.4038	6.200701	-0.6927882	1	6.239283	-6.37507	-0.0304954	0.7499537	11
	73	28	225.3606	6.242522	-0.6654877	1	6.277894	-6.085068	-0.0307693	0.7499567	11
	74	29	198.6229	6.294006	-0.6563209	1	6.328134	-5.953124	-0.0306032	0.7499565	11
	75	29	177.5568	6.335553	-0.6556367	1	6.369387	-5.908241	-0.0307192	0.7499548	11
	76	29	158.3615	6.378509	-0.6384678	1	6.410384	-5.716079	-0.0306182	0.7499525	11
	77	30	141.1898	6.423328	-0.6200437	1	6.453185	-5.513677	-0.0306765	0.7499524	11
	78	30	125.558	6.458809	-0.6119543	1	6.487735	-5.412459	-0.0307709	0.7499565	11
	79	30	111.6071	6.514792	-0.6108352	1	6.543365	-5.356465	-0.0305891	0.7499601	11
	80	31	100.4464	6.536658	-0.5923912	1	6.563447	-5.178341	-0.0307184	0.7499565	11
	81	31	89.00317	6.59036	-0.5859445	1	6.616356	-5.08077	-0.0304738	0.7499579	11
	82	31	79.00281	6.615495	-0.5490178	1	6.638237	-4.744087	-0.0306889	0.7499553	11
	83	32	71.02273	6.690254	-0.5788102	1	6.715245	-4.944657	-0.0304689	0.749954	11
	84	32	63.3446	6.72323	-0.5643446	1	6.746874	-4.798131	-0.0307333	0.7499538	11
	85	32	54.50582	6.839661	-0.5418777	1	6.861093	-4.529843	-0.0305203	0.7499518	11
	86	33	49.86702	6.871446	-0.5346404	1	6.892213	-4.448998	-0.0307583	0.7499527	11
	87	33	45.95588	6.835449	-0.5334575	1	6.856234	-4.462477	-0.0304508	0.7499621	11
	88	33	39.72458	6.94058	-0.5475299	1	6.962143	-4.51062	-0.03071	0.7499586	11
	89	34	35.51136	6.860624	-0.4890903	1	6.878036	-4.077687	-0.0304911	0.749954	11
	90	34	31.6723	6.828715	-0.6221762	1	6.857	-5.205945	-0.0306925	0.7499549	11
	91	34	28.58232	6.87653	-0.1818592	1	6.878934	-1.514912	-0.0305343	0.7499534	11
	92	35	24.93351	7.099869	-0.3374389	1	7.107883	-2.721077	-0.0305573	0.7499537	11
	93	35	22.11085	6.643969	-0.0634959	1	6.644272	-0.5475551	-0.0304905	0.7499598	11
	94	35	19.86229	7.901662	-0.6955858	1	7.93222	-5.030797	-0.0306002	0.7499643	11
	95	35	17.75568	7.622752	0.5527964	1	7.64277	4.147787	-0.0306796	0.7499538	11
	96	36	15.83615	6.73578	-0.6243983	1	6.764658	-5.296111	-0.0304695	0.7499575	11
	97	36	14.20455	6.576648	-0.1305897	1	6.577944	-1.137548	-0.0306914	0.7499577	11
	98	36	12.40079	7.117888	-0.8563811	1	7.16922	-6.860504	-0.0305812	0.7499564	11
	99	36	11.26803	6.655607	-0.4873212	1	6.673424	-4.187704	-0.0306287	0.7499563	11
	100	37	9.93114	7.932447	-0.3955725	1	7.942305	-2.854841	-0.030623	0.7499566	11
	101	37	9.014423	7.062829	-0.0120745	1	7.062839	-0.0979519	-0.0307328	0.7499544	11
	102	38	7.944915	7.395341	-0.0514722	1	7.39552	-0.3987774	-0.0305544	0.7499578	11
	103	38	7.102273	7.25202	-0.1379812	1	7.253333	-1.090011	-0.0305636	0.749958	11
	104	39	6.317385	7.224077	-0.102461	1	7.224804	-0.8125864	-0.0305414	0.7499634	11
	105	39	5.634015	7.514711	-0.022737	1	7.514745	-0.1733574	-0.0304951	0.7499607	11
	106	40	5.008013	7.365663	-0.1442991	1	7.367076	-1.122326	-0.0305465	0.7499633	11
	107	41	4.507212	7.161828	-0.3496609	1	7.170359	-2.795124	-0.0305794	0.7499648	11
	108	42	3.945707	7.562266	-0.0043637	1	7.562268	-0.0330618	-0.0304884	0.7499568	11
	109	43	3.535068	7.311463	-0.0587637	1	7.311699	-0.4604877	-0.0304768	0.7499669	11
	110	45	3.158693	6.824432	-0.3006744	1	6.831053	-2.522736	-0.0301356	0.7499596	11
	111	46	2.817007	7.417864	-0.0827041	1	7.418325	-0.6387823	-0.0301902	0.7499627	11
	112	47	2.504006	7.314129	-0.11096	1	7.31497	-0.8691467	-0.0304135	0.7499584	11
	113	48	2.253606	7.078027	-0.1615441	1	7.079871	-1.307453	-0.0304078	0.7499574	11
	114	50	1.998082	7.121876	-0.3722065	1	7.131596	-2.991694	-0.0304461	0.7499624	11
	115	51	1.767534	7.701776	-0.2746253	1	7.706671	-2.042153	-0.0303619	0.7499408	11
	116	53	1.584686	6.747725	0.0368115	1	6.747826	0.3125681	-0.0304014	0.7499718	11
	117	55	1.420455	7.382595	-0.3023561	1	7.388783	-2.345253	-0.0304061	0.749951	11
	118	57	1.266892	7.547534	0.4630157	1	7.561723	3.510503	-0.0303363	0.7499486	11
	119	60	1.120875	7.584005	-0.26652	1	7.588687	-2.012682	-0.0303128	0.7499273	11
	120	62	0.999041	7.625969	0.0500858	1	7.626133	0.3763017	-0.0301586	0.7499339	11
	121	66	0.8837669	7.222077	0.1690828	1	7.224056	1.34116	-0.0304508	0.7491002	11
	122	69	0.7923428	7.189544	-0.0292109	1	7.189603	-0.2327898	-0.0303728	0.7491013	11
	123	73	0.7102273	7.305166	0.014961	1	7.305181	0.1173417	-0.0303658	0.7490965	11
	124	77	0.633446	6.941026	0.0970117	1	6.941704	0.8007462	-0.0301715	0.7490923	11
	125	82	0.564759	7.249845	0.2308462	1	7.25352	1.823769	-0.0303234	0.7490917	11
	126	87	0.5040323	7.387245	-0.1269684	1	7.388336	-0.984675	-0.0302504	0.7490967	11
	127	93	0.4507211	7.334723	0.1026993	1	7.335442	0.8021916	-0.0302519	0.7490918	11
	128	100	0.400641	7.355889	-0.1203299	1	7.356873	-0.9371787	-0.0302238	0.7490917	11
	129	108	0.3551136	7.082894	-0.2215924	1	7.08636	-1.791947	-0.0300957	0.7490941	11
	130	116	0.316723	7.264537	0.0109441	1	7.264545	0.0863164	-0.030148	0.7490947	11
	131	126	0.2823795	7.332394	0.0005586	1	7.332394	0.0043651	-0.0300751	0.7490952	11
	132	136	0.2520161	7.465373	-0.0954592	1	7.465983	-0.7325969	-0.0299521	0.7490971	11
	133	152	0.2242823	7.446844	0.023346	1	7.44688	0.1796229	-0.0298895	0.7490943	11
	134	166	0.2003205	7.31554	0.0152425	1	7.315556	0.1193799	-0.029893	0.7490896	11
