EXPLAIN
TAG	EISPOT
TITLE	LABEL	Potentiostatic EIS	Test Identifier
DATE	LABEL	2019-10-16	Date
TIME	LABEL	18:05:28	Time
NOTES	NOTES	1	Notes...
	
PSTAT	PSTAT	REF3000-13111	Potentiostat
VDC	POTEN	0.00000E+000	T	DC Voltage (V)
FREQINIT	QUANT	1.00000E+006	Initial Freq. (Hz)
FREQFINAL	QUANT	2.00000E-001	Final Freq. (Hz)
PTSPERDEC	QUANT	2.00000E+001	Points/decade
VAC	QUANT	1.00000E+001	AC Voltage (mV rms)
AREA	QUANT	1.00000E+000	Sample Area (cm^2)
SPEED	SELECTOR	0	Optimize for:
ZGUESS	QUANT	1.00000E+006	Estimated Z (ohms)
EOC	QUANT	1.056498	Open Circuit (V)
SEQUENCER	TOGGLE	TRUE	Run as Sequence
PSTATMODEL	IQUANT	5	Pstat Model
PSTATSECTION	LABEL	REF3000-13111	Pstat Section
PSTATSERIALNO	LABEL	13111	Pstat Serial Number
CTRLMODE	IQUANT	1	Control Mode
IESTAB	IQUANT	0	I/E Stability
CASPEED	IQUANT	1	Control Amp Speed
CONVENTION	IQUANT	1	Current Convention
ICHRANGE	IQUANT	2	Ich Range
ICHRANGEMODE	TOGGLE	F	Ich Auto Range
ICHOFFSETENABLE	TOGGLE	T	Ich Offset Enable
ICHOFFSET	QUANT	0	Ich Offset (V)
ICHFILTER	IQUANT	3	Ich Filter
VCHRANGE	IQUANT	2	Vch Range
VCHRANGEMODE	TOGGLE	F	Vch Auto Range
VCHOFFSETENABLE	TOGGLE	T	Vch Offset Enable
VCHOFFSET	QUANT	0	Vch Offset (V)
VCHFILTER	IQUANT	3	Vch Filter
ACHRANGE	IQUANT	2	Ach Range
ACHOFFSETENABLE	TOGGLE	F	Ach Offset Enable
ACHOFFSET	QUANT	0	Ach Offset (V)
ACHFILTER	IQUANT	3	Ach Filter
IERANGELOWERLIMIT	IQUANT	2	I/E Range Lower Limit
IERANGEMODE	TOGGLE	F	I/E AutoRange
IERANGE	IQUANT	11	I/E Range
POSFEEDENABLE	TOGGLE	F	Positive Feedback IR Comp
POSFEEDRESISTANCE	QUANT	0	Positive Feedback Resistance (ohm)
ACHSELECT	IQUANT	0	Ach Select
CABLEID	IQUANT	14	Cable ID
DCCALDATE	LABEL	2019-10-1	DC Calibration Date
ACCALDATE	LABEL	2019-10-1	AC Calibration Date
THERMOSELECT	IQUANT	1	Thermo Select
FRAMEWORKVERSION	QUANT	6.33	Framework Version
INSTRUMENTVERSION	LABEL	3.50	Instrument Version
COMPLIANCEVOLTAGE	IQUANT	0	Compliance Voltage
ZCURVE	TABLE
	Pt	Time	Freq	Zreal	Zimag	Zsig	Zmod	Zphz	Idc	Vdc	IERange
	#	s	Hz	ohm	ohm	V	ohm	°	A	V	#
	0	4	1000078	1.903532	1.417996	1	2.373635	36.68349	-0.0004132	1.055037	10
	1	4	891328.1	1.840233	1.247092	1	2.222992	34.12477	6.154791E-005	1.055106	10
	2	4	794390.6	1.784654	1.091624	1	2.092041	31.453	-0.0002197	1.055196	10
	3	5	707953.1	1.770098	0.9429154	1	2.005576	28.04383	2.561392E-006	1.055348	10
	4	5	630984.4	1.727877	0.8218732	1	1.913383	25.43832	-0.0003461	1.055299	10
	5	5	562359.4	1.710596	0.7052354	1	1.850269	22.40512	-8.25516E-005	1.055456	10
	6	6	501234.4	1.697183	0.6013152	1	1.800558	19.50933	4.243606E-005	1.055544	10
	7	6	446765.6	1.693218	0.5077712	1	1.767716	16.69321	-0.0002543	1.055553	10
	8	6	398109.4	1.695979	0.4234542	1	1.748044	14.01906	8.847458E-005	1.055624	10
	9	7	354890.6	1.700245	0.3467705	1	1.735247	11.52756	-0.0002895	1.055665	10
	10	7	316265.6	1.708238	0.2851109	1	1.731868	9.475523	8.330849E-006	1.055722	10
	11	7	281859.4	1.720452	0.2164304	1	1.734012	7.17006	-0.0002886	1.055632	10
	12	8	251203.1	1.730242	0.1685314	1	1.738431	5.563251	0.0001014	1.055771	10
	13	8	223921.9	1.74454	0.1182167	1	1.748541	3.876654	-0.0001338	1.055851	10
	14	8	199546.9	1.762255	0.0753468	1	1.763865	2.44824	-0.0002163	1.055876	10
	15	8	177890.6	1.77906	0.0376779	1	1.779459	1.21326	-0.0002938	1.055903	10
	16	9	158578.1	1.803872	0.001641	1	1.803873	0.0521226	-0.0001459	1.055867	10
	17	9	141328.1	1.816483	-0.0275532	1	1.816692	-0.8690206	-0.0001766	1.055953	10
	18	9	125953.1	1.834447	-0.0365615	1	1.834811	-1.141782	-0.0001481	1.055788	10
	19	10	112265.6	1.853685	-0.0806921	1	1.85544	-2.492549	-4.078031E-005	1.055932	10
	20	10	100078.1	1.877711	-0.092528	1	1.879989	-2.821084	-0.0001135	1.055916	10
	21	10	89203.13	1.896149	-0.1116605	1	1.899434	-3.370143	-0.0001125	1.055941	10
	22	11	79453.13	1.914596	-0.1286121	1	1.918911	-3.843044	-0.0002876	1.055949	10
	23	11	70828.13	1.934799	-0.1446339	1	1.940198	-4.275134	-0.0001157	1.055909	10
	24	11	63140.62	1.955024	-0.1592289	1	1.961498	-4.656234	-0.0002125	1.055936	10
	25	12	56296.87	1.973525	-0.1710164	1	1.980921	-4.952611	-0.0002268	1.055952	10
	26	12	50203.12	1.999996	-0.1833412	1	2.008382	-5.23771	-0.000266	1.055936	10
	27	12	44671.88	2.014752	-0.192241	1	2.023903	-5.450472	-0.0001852	1.055932	10
	28	12	39890.62	2.031731	-0.2008978	1	2.04164	-5.647057	-0.0001687	1.055958	10
	29	13	35484.37	2.050324	-0.2086731	1	2.060915	-5.811307	-0.0002217	1.055956	10
	30	13	31640.63	2.066642	-0.214679	1	2.077763	-5.930511	-0.0001904	1.055936	10
	31	13	28265.63	2.089177	-0.2213565	1	2.100871	-6.048149	-0.0002579	1.055958	10
	32	14	25171.88	2.109177	-0.2274154	1	2.121402	-6.153962	-4.517997E-005	1.055958	10
	33	14	22453.13	2.126628	-0.2319755	1	2.139243	-6.225289	8.517259E-006	1.055964	10
	34	14	20015.62	2.14809	-0.237888	1	2.161222	-6.319414	-0.0001956	1.05596	10
	35	15	17859.38	2.16492	-0.2422387	1	2.17843	-6.384421	3.451825E-005	1.05596	10
	36	15	15890.62	2.183828	-0.2456187	1	2.197597	-6.417181	-0.0001009	1.055963	10
	37	15	14203.12	2.203631	-0.249989	1	2.217766	-6.4722	-0.0002195	1.055961	10
	38	15	12609.37	2.225682	-0.254066	1	2.240136	-6.512237	-0.0002821	1.055936	10
	39	16	11296.88	2.255925	-0.2582966	1	2.270664	-6.531751	-0.0006423	1.055948	10
	40	16	10078.13	2.277009	-0.2623679	1	2.292075	-6.572906	-0.0003098	1.055967	10
	41	16	8953.125	2.297802	-0.2658745	1	2.313133	-6.60024	-0.0004177	1.055958	10
	42	17	8015.625	2.323789	-0.2680131	1	2.339194	-6.579112	-0.0004273	1.055974	10
	43	17	7031.25	2.336681	-0.2725361	1	2.352521	-6.65257	2.609079E-005	1.055951	10
	44	17	6328.125	2.346836	-0.2726248	1	2.362618	-6.626177	-5.958194E-005	1.055952	10
	45	18	5671.875	2.363139	-0.2745571	1	2.379035	-6.627097	0.0000973	1.055961	10
	46	18	5015.625	2.38158	-0.2782527	1	2.39778	-6.663958	6.450877E-005	1.055936	10
	47	18	4457.721	2.399697	-0.2806085	1	2.416048	-6.669591	-7.710907E-007	1.055924	10
	48	19	3984.375	2.423104	-0.2828293	1	2.439554	-6.657546	0.0001247	1.055948	10
	49	19	3538.603	2.443664	-0.2845981	1	2.460181	-6.642951	-0.0001461	1.05594	10
	50	19	3170.956	2.465072	-0.2862258	1	2.481634	-6.6231	6.653281E-005	1.055922	10
	51	19	2803.309	2.487417	-0.2899232	1	2.504256	-6.648165	-0.0001074	1.055952	10
	52	20	2527.573	2.518181	-0.2930891	1	2.53518	-6.63874	-0.0005252	1.05593	10
	53	20	2251.838	2.534191	-0.2962556	1	2.551449	-6.667806	4.837716E-008	1.05592	10
	54	20	1976.103	2.553835	-0.3006073	1	2.571466	-6.71329	-0.0001666	1.055921	10
	55	21	1792.279	2.568687	-0.3030802	1	2.586505	-6.729235	0.0002519	1.055958	10
	56	21	1577.524	2.589697	-0.3039194	1	2.60747	-6.693451	-0.0002493	1.055966	10
	57	21	1424.632	2.619371	-0.3123511	1	2.637929	-6.800215	-0.0001139	1.05595	10
	58	22	1265.625	2.641674	-0.3127798	1	2.660126	-6.752504	-0.000236	1.055964	10
	59	22	1126.803	2.665404	-0.3189638	1	2.684421	-6.824027	-0.0001936	1.05593	10
	60	22	998.264	2.689169	-0.323496	1	2.708556	-6.859488	-0.0001711	1.055937	10
	61	23	894.8864	2.711136	-0.3286247	1	2.73098	-6.911272	-0.0004167	1.055939	10
	62	23	796.875	2.736262	-0.3363562	1	2.756858	-7.007952	-0.0001341	1.055951	10
	63	23	711.4955	2.768716	-0.3421093	1	2.789772	-7.043902	-0.0003786	1.055959	10
	64	23	627.7902	2.786844	-0.3487643	1	2.808583	-7.133291	-8.05878E-005	1.055922	10
	65	24	564.2361	2.816198	-0.3579371	1	2.838854	-7.243422	-0.0001815	1.055968	10
	66	24	505.5147	2.831903	-0.3605345	1	2.854761	-7.255394	-9.265268E-005	1.055943	10
	67	24	444.5043	2.862566	-0.3672394	1	2.886027	-7.310559	-7.666769E-005	1.055965	10
	68	25	397.9953	2.885254	-0.3722007	1	2.909162	-7.350619	-0.0002089	1.055971	10
	69	25	357.5212	2.906734	-0.3781843	1	2.931233	-7.412899	-3.360407E-006	1.055965	10
	70	25	315.5048	2.938643	-0.3861122	1	2.9639	-7.485291	9.409083E-006	1.055965	10
	71	26	282.8664	2.966082	-0.3912748	1	2.991778	-7.514861	0.0001036	1.055963	10
	72	26	252.4038	2.993156	-0.3945341	1	3.019046	-7.508986	-1.999772E-005	1.055962	10
	73	26	225.3606	3.029495	-0.4005938	1	3.055866	-7.532589	-0.0001393	1.055969	10
	74	27	198.6229	3.061414	-0.4073917	1	3.088402	-7.579988	6.826367E-005	1.055964	10
	75	27	177.5568	3.097352	-0.4127862	1	3.124737	-7.591117	-0.0003243	1.055963	10
	76	27	158.3615	3.132808	-0.4191794	1	3.160728	-7.621086	-0.0002608	1.055969	10
	77	28	141.1898	3.171569	-0.4194174	1	3.199181	-7.533247	-0.0002144	1.055967	10
	78	28	125.558	3.210993	-0.4219402	1	3.238597	-7.486055	-0.0004236	1.055973	10
	79	28	111.6071	3.243295	-0.4332204	1	3.2721	-7.608202	-0.0002439	1.055967	10
	80	28	100.4464	3.275094	-0.4324374	1	3.30352	-7.52172	-0.0002192	1.055963	10
	81	29	89.00317	3.294205	-0.4233193	1	3.321293	-7.322618	-0.000333	1.055967	10
	82	29	79.00281	3.352693	-0.4463376	1	3.382273	-7.583088	-5.103522E-005	1.055964	10
	83	29	71.02273	3.375568	-0.4246851	1	3.402178	-7.170788	-0.0001013	1.055963	10
	84	30	63.3446	3.416885	-0.442323	1	3.445396	-7.37604	-9.80576E-006	1.055964	10
	85	30	54.50582	3.463764	-0.4469924	1	3.492487	-7.353275	-4.758431E-005	1.055966	10
	86	30	49.86702	3.451065	-0.4449248	1	3.479627	-7.346274	6.202005E-005	1.05596	10
	87	31	45.95588	3.588853	-0.3513356	1	3.606009	-5.59123	-0.0002297	1.055973	10
	88	31	39.72458	3.550314	-0.4480771	1	3.578478	-7.19314	-8.742678E-005	1.055966	10
	89	31	35.51136	3.619527	-0.455408	1	3.648064	-7.171258	-0.000243	1.055968	10
	90	32	31.6723	3.434304	-0.3860223	1	3.45593	-6.413237	-0.00049	1.055969	10
	91	32	28.58232	3.5694	-0.3654296	1	3.588057	-5.845486	-0.0005254	1.055971	10
	92	32	24.93351	3.745983	-0.3856023	1	3.765777	-5.877187	-0.0003075	1.055964	10
	93	33	22.11085	3.631194	-0.3596637	1	3.648962	-5.656602	-6.648318E-005	1.055965	10
	94	33	19.86229	3.662196	-0.0254672	1	3.662284	-0.3984334	-0.0001673	1.055965	10
	95	33	17.75568	3.320147	-0.3463125	1	3.33816	-5.954781	-0.0004069	1.055971	10
	96	33	15.83615	4.118124	-0.0295497	1	4.11823	-0.4111207	-0.0001985	1.055966	10
	97	34	14.20455	3.943044	0.2231306	1	3.949352	3.238822	-0.0003143	1.055968	10
	98	34	12.40079	3.793159	-1.950468	1	4.265253	-27.21253	-0.0011657	1.055984	10
	99	34	11.26803	4.046671	-0.4247596	1	4.068903	-5.992119	0.0001349	1.055968	10
	100	35	9.93114	3.660346	-0.6132026	1	3.711354	-9.51021	3.180767E-005	1.055969	10
	101	35	9.014423	3.79874	-0.4618167	1	3.826709	-6.931492	0.0001301	1.055962	10
	102	35	7.944915	3.981521	-0.2062029	1	3.986857	-2.9647	5.708182E-005	1.055963	10
	103	36	7.102273	3.923573	-0.2945747	1	3.934616	-4.293607	-0.0001016	1.055973	10
	104	37	6.317385	4.114446	-0.3566214	1	4.129872	-4.953757	-6.939988E-006	1.055975	10
	105	37	5.634015	3.979642	-0.327057	1	3.993058	-4.698153	0.0001325	1.055971	10
	106	38	5.008013	3.9464	-0.1943125	1	3.951181	-2.818848	-4.107942E-005	1.055975	10
	107	39	4.507212	3.919723	-0.2538104	1	3.927932	-3.704852	-0.0004452	1.055978	10
	108	40	3.945707	4.138579	-0.2949884	1	4.149079	-4.077016	0.0001081	1.055973	10
	109	41	3.535068	4.144398	-0.1453237	1	4.146945	-2.008258	0.0001003	1.055963	10
	110	43	3.158693	4.081501	-0.1624583	1	4.084733	-2.279372	3.390519E-005	1.055972	10
	111	44	2.817007	4.22184	-0.0194062	1	4.221885	-0.2633655	-7.652154E-005	1.055965	10
	112	45	2.504006	4.121668	-0.1059966	1	4.123031	-1.473146	9.448502E-005	1.055965	10
	113	46	2.253606	4.156342	-0.0747685	1	4.157014	-1.030583	9.355721E-006	1.055967	10
	114	48	1.998082	4.037406	-0.0504768	1	4.037722	-0.7162907	-9.002684E-006	1.055961	10
	115	49	1.767534	4.096896	-0.0245172	1	4.096969	-0.3428734	-5.323912E-005	1.055987	10
	116	51	1.584686	4.309969	-0.4344935	1	4.331814	-5.756612	-0.0001999	1.055956	10
	117	53	1.420455	4.390115	-0.2377782	1	4.396549	-3.100236	0.0001502	1.055964	10
	118	55	1.266892	4.313111	-0.0365767	1	4.313266	-0.4858767	-0.0001905	1.055979	10
	119	58	1.120875	4.189267	-0.1242524	1	4.191109	-1.698878	9.185031E-005	1.055995	10
	120	61	0.999041	4.076651	-0.087163	1	4.077582	-1.224856	0.000106	1.05598	10
	121	63	0.8837669	4.133827	-0.0050931	1	4.13383	-0.0705916	-0.0001595	1.055112	10
	122	66	0.7923428	4.20077	-0.1090896	1	4.202186	-1.487578	-6.620578E-005	1.055111	10
	123	70	0.7102273	4.175767	-0.0572178	1	4.176159	-0.7850379	-0.0001497	1.055113	10
	124	74	0.633446	4.137186	-0.0788053	1	4.137937	-1.09124	-3.683647E-006	1.055115	10
	125	79	0.564759	4.185019	-0.0483625	1	4.185299	-0.6620862	6.514261E-006	1.055108	10
	126	84	0.5040323	4.174862	-0.1729988	1	4.178445	-2.372876	-0.0001085	1.055112	10
	127	90	0.4507211	4.099573	-0.0442286	1	4.099811	-0.618116	1.747269E-005	1.055108	10
	128	97	0.400641	4.276414	0.0158117	1	4.276443	0.2118456	9.354801E-005	1.055108	10
	129	105	0.3551136	4.107136	-0.0592421	1	4.107563	-0.8263884	0.000141	1.055102	10
	130	113	0.316723	4.158134	-0.0798925	1	4.158902	-1.100719	0.0001064	1.055103	10
	131	123	0.2823795	4.174292	-0.0172781	1	4.174328	-0.2371559	0.0002242	1.055098	10
	132	133	0.2520161	4.315709	-0.1232127	1	4.317468	-1.63534	0.0001615	1.055101	10
	133	145	0.2242823	4.116696	-0.0876277	1	4.117629	-1.21941	0.0003384	1.055099	10
	134	159	0.2003205	4.248527	0.0167733	1	4.248559	0.2262042	0.0003777	1.0551	10
