EXPLAIN
TAG	EISPOT
TITLE	LABEL	Potentiostatic EIS	Test Identifier
DATE	LABEL	2019-10-16	Date
TIME	LABEL	18:09:43	Time
NOTES	NOTES	1	Notes...
	
PSTAT	PSTAT	REF3000-13111	Potentiostat
VDC	POTEN	7.50000E-001	F	DC Voltage (V)
FREQINIT	QUANT	1.00000E+006	Initial Freq. (Hz)
FREQFINAL	QUANT	2.00000E-001	Final Freq. (Hz)
PTSPERDEC	QUANT	2.00000E+001	Points/decade
VAC	QUANT	1.00000E+001	AC Voltage (mV rms)
AREA	QUANT	1.00000E+000	Sample Area (cm^2)
SPEED	SELECTOR	0	Optimize for:
ZGUESS	QUANT	1.00000E+006	Estimated Z (ohms)
EOC	QUANT	1.05206	Open Circuit (V)
SEQUENCER	TOGGLE	TRUE	Run as Sequence
PSTATMODEL	IQUANT	5	Pstat Model
PSTATSECTION	LABEL	REF3000-13111	Pstat Section
PSTATSERIALNO	LABEL	13111	Pstat Serial Number
CTRLMODE	IQUANT	1	Control Mode
IESTAB	IQUANT	0	I/E Stability
CASPEED	IQUANT	1	Control Amp Speed
CONVENTION	IQUANT	1	Current Convention
ICHRANGE	IQUANT	2	Ich Range
ICHRANGEMODE	TOGGLE	F	Ich Auto Range
ICHOFFSETENABLE	TOGGLE	T	Ich Offset Enable
ICHOFFSET	QUANT	0	Ich Offset (V)
ICHFILTER	IQUANT	3	Ich Filter
VCHRANGE	IQUANT	2	Vch Range
VCHRANGEMODE	TOGGLE	F	Vch Auto Range
VCHOFFSETENABLE	TOGGLE	T	Vch Offset Enable
VCHOFFSET	QUANT	0	Vch Offset (V)
VCHFILTER	IQUANT	3	Vch Filter
ACHRANGE	IQUANT	2	Ach Range
ACHOFFSETENABLE	TOGGLE	F	Ach Offset Enable
ACHOFFSET	QUANT	0	Ach Offset (V)
ACHFILTER	IQUANT	3	Ach Filter
IERANGELOWERLIMIT	IQUANT	2	I/E Range Lower Limit
IERANGEMODE	TOGGLE	F	I/E AutoRange
IERANGE	IQUANT	11	I/E Range
POSFEEDENABLE	TOGGLE	F	Positive Feedback IR Comp
POSFEEDRESISTANCE	QUANT	0	Positive Feedback Resistance (ohm)
ACHSELECT	IQUANT	0	Ach Select
CABLEID	IQUANT	14	Cable ID
DCCALDATE	LABEL	2019-10-1	DC Calibration Date
ACCALDATE	LABEL	2019-10-1	AC Calibration Date
THERMOSELECT	IQUANT	1	Thermo Select
FRAMEWORKVERSION	QUANT	6.33	Framework Version
INSTRUMENTVERSION	LABEL	3.50	Instrument Version
COMPLIANCEVOLTAGE	IQUANT	0	Compliance Voltage
ZCURVE	TABLE
	Pt	Time	Freq	Zreal	Zimag	Zsig	Zmod	Zphz	Idc	Vdc	IERange
	#	s	Hz	ohm	ohm	V	ohm	°	A	V	#
	0	4	1000078	1.79851	1.680564	1	2.46149	43.05834	-0.0706154	0.7496791	11
	1	5	891328.1	1.745678	1.467846	1	2.280781	40.05865	-0.0712563	0.749543	11
	2	5	794390.6	1.708547	1.273746	1	2.131094	36.70505	-0.0710418	0.7496397	11
	3	5	707953.1	1.677945	1.095815	1	2.004073	33.14734	-0.0708101	0.7498082	11
	4	5	630984.4	1.666406	0.96372	1	1.92501	30.04177	-0.0708798	0.7498106	11
	5	6	562359.4	1.656896	0.826899	1	1.851774	26.52218	-0.0708257	0.7497901	11
	6	6	501234.4	1.653737	0.7126688	1	1.800762	23.31336	-0.070518	0.7498494	11
	7	6	446765.6	1.652825	0.6022084	1	1.759115	20.01926	-0.0706479	0.7498445	11
	8	7	398109.4	1.653673	0.5114886	1	1.730969	17.18707	-0.0708394	0.7497211	11
	9	7	354890.6	1.65753	0.4229588	1	1.710643	14.31492	-0.0705393	0.7499815	11
	10	7	316265.6	1.666563	0.3435429	1	1.701604	11.64771	-0.0708181	0.7499098	11
	11	8	281859.4	1.679557	0.2733031	1	1.701648	9.242353	-0.0702174	0.7500266	11
	12	8	251203.1	1.695895	0.2123797	1	1.709141	7.138085	-0.0705659	0.7499324	11
	13	8	223921.9	1.707683	0.155267	1	1.714727	5.195198	-0.0703896	0.7498362	11
	14	9	199546.9	1.722248	0.1039954	1	1.725385	3.455525	-0.0702486	0.7500179	11
	15	9	177890.6	1.739918	0.0587604	1	1.74091	1.934254	-0.0703854	0.7500337	11
	16	9	158578.1	1.757483	0.0165791	1	1.757561	0.5404812	-0.0701142	0.7500288	11
	17	9	141328.1	1.77738	-0.0225014	1	1.777522	-0.7253187	-0.0702895	0.7500484	11
	18	10	125953.1	1.801991	-0.0656152	1	1.803186	-2.085367	-0.0703234	0.7498655	11
	19	10	112265.6	1.819069	-0.0887898	1	1.821235	-2.794422	-0.0701533	0.7500584	11
	20	10	100078.1	1.844671	-0.1155693	1	1.848288	-3.584917	-0.070033	0.7500242	11
	21	11	89203.13	1.864132	-0.1422922	1	1.869555	-4.365016	-0.0701527	0.750029	11
	22	11	79453.13	1.88914	-0.1672557	1	1.896529	-5.059511	-0.0699569	0.7499835	11
	23	11	70828.13	1.909579	-0.1889134	1	1.918901	-5.649851	-0.0698784	0.7499603	11
	24	12	63140.62	1.932605	-0.2094254	1	1.943919	-6.184684	-0.0698543	0.7499603	11
	25	12	56296.87	1.957934	-0.2286612	1	1.971241	-6.661225	-0.069777	0.750007	11
	26	12	50203.12	1.977815	-0.2459956	1	1.993055	-7.089891	-0.0695919	0.7500015	11
	27	13	44671.88	2.00228	-0.2630586	1	2.019486	-7.484626	-0.0695888	0.7500337	11
	28	13	39890.62	2.026161	-0.2788885	1	2.045265	-7.83716	-0.0697595	0.7500089	11
	29	13	35484.37	2.051801	-0.2941013	1	2.072772	-8.157108	-0.0696821	0.7500013	11
	30	13	31640.63	2.082185	-0.3104699	1	2.105204	-8.480763	-0.0696982	0.7500166	11
	31	14	28265.63	2.110529	-0.3235948	1	2.135192	-8.716936	-0.069693	0.7499956	11
	32	14	25171.88	2.134478	-0.3368979	1	2.160902	-8.969356	-0.0693295	0.7500151	11
	33	14	22453.13	2.162092	-0.3507136	1	2.190352	-9.213712	-0.0694583	0.750006	11
	34	15	20015.62	2.188173	-0.362009	1	2.217916	-9.393867	-0.0691404	0.7500381	11
	35	15	17859.38	2.223203	-0.3742485	1	2.254483	-9.55544	-0.0696823	0.7499923	11
	36	15	15890.62	2.255341	-0.3881491	1	2.288498	-9.76507	-0.0694463	0.7500072	11
	37	16	14203.12	2.290173	-0.3997084	1	2.324793	-9.90022	-0.0694241	0.7499784	11
	38	16	12609.37	2.321696	-0.41193	1	2.357956	-10.06108	-0.0690574	0.7500105	11
	39	16	11296.88	2.354712	-0.421317	1	2.392107	-10.14431	-0.0691359	0.7499645	11
	40	16	10078.13	2.389508	-0.4314844	1	2.428154	-10.23586	-0.0691879	0.7500148	11
	41	17	8953.125	2.428616	-0.4417031	1	2.468457	-10.30796	-0.0690117	0.7499759	11
	42	17	8015.625	2.468301	-0.4508321	1	2.509135	-10.3509	-0.0690661	0.7500119	11
	43	17	7031.25	2.511202	-0.4590059	1	2.552806	-10.35837	-0.0688089	0.7500225	11
	44	18	6328.125	2.544317	-0.4655966	1	2.586567	-10.37009	-0.068683	0.7500111	11
	45	18	5671.875	2.58362	-0.4687591	1	2.6258	-10.2836	-0.0689245	0.7499998	11
	46	18	5015.625	2.628273	-0.4739886	1	2.670671	-10.22297	-0.0686674	0.750014	11
	47	19	4457.721	2.675243	-0.4785146	1	2.717701	-10.14112	-0.0688834	0.7500296	11
	48	19	3984.375	2.717386	-0.4788615	1	2.759256	-9.99413	-0.0687318	0.7499634	11
	49	19	3538.603	2.776306	-0.4796636	1	2.817438	-9.80225	-0.0683394	0.7499533	11
	50	20	3170.956	2.800139	-0.4762842	1	2.840356	-9.65323	-0.0682518	0.7500197	11
	51	20	2803.309	2.840474	-0.4689086	1	2.878918	-9.373909	-0.0684061	0.7499634	11
	52	20	2527.573	2.873653	-0.4633835	1	2.910774	-9.160229	-0.0684933	0.7499637	11
	53	20	2251.838	2.907244	-0.4609511	1	2.94356	-9.009397	-0.0683602	0.7500342	11
	54	21	1976.103	2.94939	-0.4510823	1	2.983685	-8.695485	-0.068273	0.7499613	11
	55	21	1792.279	2.978609	-0.4443552	1	3.011571	-8.48493	-0.0684138	0.7500201	11
	56	22	1577.524	3.021888	-0.4317265	1	3.052572	-8.130626	-0.0685118	0.7500322	11
	57	22	1424.632	3.055583	-0.4280885	1	3.085424	-7.975256	-0.0682529	0.7499838	11
	58	22	1265.625	3.08817	-0.4186005	1	3.116412	-7.719376	-0.0683567	0.7500339	11
	59	23	1126.803	3.127192	-0.409854	1	3.153936	-7.466704	-0.0680088	0.7499639	11
	60	23	998.264	3.149595	-0.4000226	1	3.174896	-7.238247	-0.0679822	0.7499748	11
	61	23	894.8864	3.172426	-0.3909947	1	3.19643	-7.026149	-0.0682774	0.7500013	11
	62	23	796.875	3.198675	-0.3828919	1	3.221511	-6.826013	-0.0680505	0.7500337	11
	63	24	711.4955	3.223994	-0.3763183	1	3.245883	-6.657681	-0.0683333	0.7500402	11
	64	24	627.7902	3.265093	-0.3667787	1	3.285629	-6.409355	-0.0681545	0.7500126	11
	65	24	564.2361	3.287379	-0.355736	1	3.306571	-6.176095	-0.067991	0.7500025	11
	66	25	505.5147	3.310916	-0.3536367	1	3.329748	-6.096611	-0.0680057	0.7499685	11
	67	25	444.5043	3.33375	-0.3444544	1	3.351498	-5.899062	-0.0679514	0.7500327	11
	68	25	397.9953	3.35351	-0.3398904	1	3.37069	-5.787373	-0.0681367	0.7500324	11
	69	26	357.5212	3.381686	-0.3373552	1	3.398472	-5.696947	-0.0681394	0.7500287	11
	70	26	315.5048	3.406292	-0.330779	1	3.422315	-5.546502	-0.0677868	0.7500283	11
	71	26	282.8664	3.420779	-0.3237105	1	3.436061	-5.405839	-0.0679395	0.7500235	11
	72	27	252.4038	3.448567	-0.3187557	1	3.463267	-5.280921	-0.0680602	0.7500211	11
	73	27	225.3606	3.467317	-0.3106458	1	3.481205	-5.119607	-0.0678723	0.7500262	11
	74	27	198.6229	3.494354	-0.3090132	1	3.507991	-5.053641	-0.0677397	0.750026	11
	75	27	177.5568	3.512761	-0.3030521	1	3.525809	-4.930799	-0.0680836	0.7500222	11
	76	28	158.3615	3.536038	-0.3009911	1	3.548826	-4.865346	-0.0678496	0.7500212	11
	77	28	141.1898	3.566193	-0.2956331	1	3.578426	-4.738915	-0.067727	0.750018	11
	78	28	125.558	3.601178	-0.2972691	1	3.613426	-4.718938	-0.0679518	0.7500255	11
	79	29	111.6071	3.614541	-0.2823202	1	3.62555	-4.466122	-0.0678625	0.7500259	11
	80	29	100.4464	3.627913	-0.2753145	1	3.638344	-4.339736	-0.067643	0.7500232	11
	81	29	89.00317	3.652434	-0.2730992	1	3.66263	-4.276154	-0.0679403	0.7500219	11
	82	30	79.00281	3.682691	-0.2525545	1	3.691341	-3.923133	-0.0677518	0.7500183	11
	83	30	71.02273	3.715837	-0.242945	1	3.723771	-3.740728	-0.0677917	0.750021	11
	84	30	63.3446	3.716521	-0.2298139	1	3.723619	-3.538423	-0.0677534	0.7500196	11
	85	31	54.50582	3.73583	-0.2437534	1	3.743773	-3.733112	-0.0674935	0.7500175	11
	86	31	49.86702	3.799562	-0.2462718	1	3.807534	-3.708486	-0.0674285	0.7500182	11
	87	31	45.95588	3.735573	-0.0842546	1	3.736523	-1.292069	-0.0677505	0.750028	11
	88	32	39.72458	3.811697	-0.1887006	1	3.816365	-2.834152	-0.0673952	0.7500235	11
	89	32	35.51136	3.871242	-0.162911	1	3.874669	-2.40972	-0.0666765	0.7500206	11
	90	32	31.6723	3.651727	-0.1824291	1	3.656281	-2.859945	-0.0671214	0.7500187	11
	91	33	28.58232	3.760129	0.0086933	1	3.760139	0.1324662	-0.0666462	0.7500188	11
	92	33	24.93351	3.856757	-0.1795244	1	3.860933	-2.665081	-0.0675947	0.7500221	11
	93	33	22.11085	3.633535	0.0189605	1	3.633585	0.2989782	-0.0671715	0.7500272	11
	94	33	19.86229	4.339268	0.339008	1	4.35249	4.467195	-0.0670938	0.7500262	11
	95	34	17.75568	3.97414	0.4500487	1	3.999542	6.460895	-0.0672032	0.7500244	11
	96	34	15.83615	4.020784	-0.6343727	1	4.07052	-8.965842	-0.0671242	0.7500237	11
	97	34	14.20455	3.835093	-0.7106419	1	3.900378	-10.49782	-0.06719	0.7500245	11
	98	34	12.40079	3.821551	0.6828108	1	3.882072	10.13035	-0.0671406	0.7500237	11
	99	35	11.26803	3.956481	0.3832227	1	3.974997	5.532382	-0.0672702	0.7500261	11
	100	35	9.93114	4.005939	-0.1034909	1	4.007275	-1.479871	-0.0668174	0.7500243	11
	101	36	9.014423	3.919463	-0.0267611	1	3.919555	-0.3911952	-0.0669542	0.7500277	11
	102	36	7.944915	4.014192	-0.0394858	1	4.014386	-0.5635749	-0.0668668	0.7500271	11
	103	37	7.102273	3.875395	0.0480245	1	3.875692	0.7099817	-0.0669695	0.7500281	11
	104	37	6.317385	4.004372	0.0468929	1	4.004646	0.6709278	-0.0669585	0.7500324	11
	105	38	5.634015	3.973123	-0.0650523	1	3.973656	-0.9380248	-0.0668992	0.7500306	11
	106	39	5.008013	4.003111	-0.0345029	1	4.00326	-0.4938212	-0.0668666	0.7500299	11
	107	40	4.507212	4.092535	-0.0330154	1	4.092669	-0.4622072	-0.0668195	0.7500246	11
	108	41	3.945707	3.876182	-0.1226138	1	3.878121	-1.811811	-0.0667806	0.7500274	11
	109	42	3.535068	3.958328	-0.0302628	1	3.958443	-0.4380384	-0.0667026	0.750025	11
	110	43	3.158693	3.960766	0.0713443	1	3.961409	1.031943	-0.0666877	0.7500382	11
	111	44	2.817007	3.827713	-0.0983513	1	3.828976	-1.471865	-0.0666159	0.7500281	11
	112	46	2.504006	3.951379	0.0473069	1	3.951662	0.685926	-0.0664879	0.7500277	11
	113	47	2.253606	4.010123	-0.0592482	1	4.010561	-0.8464636	-0.0663527	0.7500192	11
	114	48	1.998082	3.726608	-0.0892984	1	3.727678	-1.372681	-0.0661591	0.7500237	11
	115	50	1.767534	4.078773	-0.1641731	1	4.082076	-2.304945	-0.0661593	0.7500361	11
	116	52	1.584686	4.067888	0.0553942	1	4.068265	0.7801739	-0.0657908	0.7500049	11
	117	54	1.420455	3.981582	0.1966552	1	3.986436	2.82761	-0.0657329	0.7500316	11
	118	56	1.266892	3.979753	0.0326516	1	3.979887	0.470069	-0.0657314	0.7500237	11
	119	58	1.120875	4.058942	0.0045397	1	4.058944	0.0640818	-0.0656521	0.7500434	11
	120	61	0.999041	4.055855	-0.0886339	1	4.056823	-1.251904	-0.0655448	0.7500376	11
	121	63	0.8837669	4.069252	0.0928849	1	4.070312	1.307609	-0.0655414	0.7491671	11
	122	67	0.7923428	4.108015	-0.1416627	1	4.110457	-1.975032	-0.0654114	0.7491682	11
	123	70	0.7102273	4.123174	0.0025577	1	4.123175	0.0355425	-0.0650264	0.7491669	11
	124	75	0.633446	3.883299	-0.1113536	1	3.884896	-1.642506	-0.0650553	0.7491669	11
	125	79	0.564759	4.187986	-0.0081706	1	4.187994	-0.1117815	-0.0647812	0.7491645	11
	126	85	0.5040323	4.203306	-0.0333178	1	4.203438	-0.4541491	-0.0641784	0.7491594	11
	127	91	0.4507211	4.08722	-0.1659233	1	4.090587	-2.324682	-0.0642636	0.7491596	11
	128	98	0.400641	4.04319	0.0650184	1	4.043713	0.9212919	-0.0639756	0.7491622	11
	129	105	0.3551136	4.146419	-0.1238669	1	4.148269	-1.711101	-0.0635696	0.7491606	11
	130	114	0.316723	4.283419	-0.0873162	1	4.284308	-1.167795	-0.063393	0.7491652	11
	131	123	0.2823795	4.169058	0.0019566	1	4.169058	0.0268897	-0.0629965	0.7491619	11
	132	134	0.2520161	4.213364	0.0267266	1	4.213449	0.3634396	-0.0627251	0.749161	11
	133	146	0.2242823	4.183856	0.1301858	1	4.185881	1.782253	-0.0623171	0.7491539	11
	134	159	0.2003205	4.203306	-0.1274477	1	4.205238	-1.736723	-0.0619939	0.7491567	11
