EXPLAIN
TAG	EISPOT
TITLE	LABEL	Potentiostatic EIS	Test Identifier
DATE	LABEL	2019-10-16	Date
TIME	LABEL	18:14:19	Time
NOTES	NOTES	1	Notes...
	
PSTAT	PSTAT	REF3000-13111	Potentiostat
VDC	POTEN	5.50000E-001	F	DC Voltage (V)
FREQINIT	QUANT	1.00000E+006	Initial Freq. (Hz)
FREQFINAL	QUANT	2.00000E-001	Final Freq. (Hz)
PTSPERDEC	QUANT	2.00000E+001	Points/decade
VAC	QUANT	1.00000E+001	AC Voltage (mV rms)
AREA	QUANT	1.00000E+000	Sample Area (cm^2)
SPEED	SELECTOR	0	Optimize for:
ZGUESS	QUANT	1.00000E+006	Estimated Z (ohms)
EOC	QUANT	1.041647	Open Circuit (V)
SEQUENCER	TOGGLE	TRUE	Run as Sequence
PSTATMODEL	IQUANT	5	Pstat Model
PSTATSECTION	LABEL	REF3000-13111	Pstat Section
PSTATSERIALNO	LABEL	13111	Pstat Serial Number
CTRLMODE	IQUANT	1	Control Mode
IESTAB	IQUANT	0	I/E Stability
CASPEED	IQUANT	1	Control Amp Speed
CONVENTION	IQUANT	1	Current Convention
ICHRANGE	IQUANT	2	Ich Range
ICHRANGEMODE	TOGGLE	F	Ich Auto Range
ICHOFFSETENABLE	TOGGLE	T	Ich Offset Enable
ICHOFFSET	QUANT	0	Ich Offset (V)
ICHFILTER	IQUANT	3	Ich Filter
VCHRANGE	IQUANT	2	Vch Range
VCHRANGEMODE	TOGGLE	F	Vch Auto Range
VCHOFFSETENABLE	TOGGLE	T	Vch Offset Enable
VCHOFFSET	QUANT	0	Vch Offset (V)
VCHFILTER	IQUANT	3	Vch Filter
ACHRANGE	IQUANT	2	Ach Range
ACHOFFSETENABLE	TOGGLE	F	Ach Offset Enable
ACHOFFSET	QUANT	0	Ach Offset (V)
ACHFILTER	IQUANT	3	Ach Filter
IERANGELOWERLIMIT	IQUANT	2	I/E Range Lower Limit
IERANGEMODE	TOGGLE	F	I/E AutoRange
IERANGE	IQUANT	11	I/E Range
POSFEEDENABLE	TOGGLE	F	Positive Feedback IR Comp
POSFEEDRESISTANCE	QUANT	0	Positive Feedback Resistance (ohm)
ACHSELECT	IQUANT	0	Ach Select
CABLEID	IQUANT	14	Cable ID
DCCALDATE	LABEL	2019-10-1	DC Calibration Date
ACCALDATE	LABEL	2019-10-1	AC Calibration Date
THERMOSELECT	IQUANT	1	Thermo Select
FRAMEWORKVERSION	QUANT	6.33	Framework Version
INSTRUMENTVERSION	LABEL	3.50	Instrument Version
COMPLIANCEVOLTAGE	IQUANT	0	Compliance Voltage
ZCURVE	TABLE
	Pt	Time	Freq	Zreal	Zimag	Zsig	Zmod	Zphz	Idc	Vdc	IERange
	#	s	Hz	ohm	ohm	V	ohm	°	A	V	#
	0	3	1000078	1.79398	1.693803	1	2.467252	43.3548	-0.1169751	0.5502945	11
	1	4	891328.1	1.733446	1.480032	1	2.279327	40.491	-0.1170391	0.550244	11
	2	4	794390.6	1.703877	1.294107	1	2.139605	37.21695	-0.1167926	0.5502254	11
	3	4	707953.1	1.714867	1.143573	1	2.061196	33.69766	-0.117006	0.5502291	11
	4	5	630984.4	1.664334	0.973567	1	1.92817	30.32587	-0.1162772	0.5503218	11
	5	5	562359.4	1.643651	0.8428833	1	1.847171	27.14928	-0.1170026	0.5503036	11
	6	5	501234.4	1.637464	0.7227093	1	1.789859	23.8147	-0.1170313	0.5502922	11
	7	5	446765.6	1.632968	0.6195175	1	1.746535	20.77581	-0.1172769	0.5501012	11
	8	6	398109.4	1.631968	0.5242118	1	1.714094	17.80777	-0.1173944	0.5499759	11
	9	6	354890.6	1.638844	0.4356664	1	1.695764	14.88706	-0.1170702	0.5503732	11
	10	6	316265.6	1.644579	0.3565913	1	1.682794	12.23397	-0.1170765	0.5503199	11
	11	7	281859.4	1.654622	0.2861095	1	1.679176	9.81031	-0.1170606	0.5503071	11
	12	7	251203.1	1.666128	0.2218289	1	1.68083	7.583781	-0.1173058	0.5501864	11
	13	7	223921.9	1.680133	0.1647016	1	1.688187	5.598755	-0.1169704	0.5504053	11
	14	8	199546.9	1.69233	0.1115834	1	1.696004	3.772325	-0.1170745	0.5501966	11
	15	8	177890.6	1.71206	0.0639457	1	1.713254	2.139011	-0.1171787	0.5504249	11
	16	8	158578.1	1.729853	0.0207679	1	1.729978	0.6878353	-0.1169048	0.5503446	11
	17	9	141328.1	1.746634	-0.0185757	1	1.746733	-0.6093255	-0.1169994	0.5504177	11
	18	9	125953.1	1.74484	-0.0565793	1	1.745757	-1.85726	-0.1170876	0.5503504	11
	19	9	112265.6	1.789648	-0.0887952	1	1.79185	-2.84046	-0.1170129	0.5503085	11
	20	9	100078.1	1.81333	-0.1182945	1	1.817185	-3.732463	-0.1168363	0.5503674	11
	21	10	89203.13	1.835044	-0.1458203	1	1.840829	-4.543415	-0.1168838	0.5503948	11
	22	10	79453.13	1.858946	-0.1711212	1	1.866806	-5.259414	-0.1168492	0.5503435	11
	23	10	70828.13	1.878079	-0.1930687	1	1.887977	-5.869454	-0.1166861	0.550382	11
	24	11	63140.62	1.90674	-0.2160742	1	1.918944	-6.465251	-0.1168723	0.5503532	11
	25	11	56296.87	1.932207	-0.2358116	1	1.946543	-6.958116	-0.1166219	0.5503891	11
	26	11	50203.12	1.956055	-0.2539284	1	1.972468	-7.396576	-0.116613	0.5503612	11
	27	12	44671.88	1.983337	-0.2717861	1	2.001873	-7.80291	-0.1165306	0.5503886	11
	28	12	39890.62	2.009671	-0.2871543	1	2.030082	-8.131737	-0.1164079	0.5503507	11
	29	12	35484.37	2.035257	-0.3025095	1	2.057616	-8.454235	-0.1163299	0.5503674	11
	30	12	31640.63	2.062245	-0.3161128	1	2.086333	-8.714793	-0.1164626	0.5503082	11
	31	13	28265.63	2.088419	-0.3302069	1	2.114363	-8.984846	-0.1163712	0.5503698	11
	32	13	25171.88	2.118361	-0.3430452	1	2.145957	-9.198566	-0.11626	0.5503444	11
	33	13	22453.13	2.154051	-0.3569035	1	2.183419	-9.407834	-0.1161577	0.5503713	11
	34	14	20015.62	2.193998	-0.3708788	1	2.225124	-9.59471	-0.1155805	0.5503575	11
	35	14	17859.38	2.222232	-0.3805517	1	2.254581	-9.7175	-0.1155794	0.5503463	11
	36	14	15890.62	2.249116	-0.3915711	1	2.282948	-9.8762	-0.1154743	0.5503224	11
	37	15	14203.12	2.265988	-0.3984076	1	2.300746	-9.97186	-0.1154789	0.5503597	11
	38	15	12609.37	2.296148	-0.4109662	1	2.332636	-10.1474	-0.1164907	0.550388	11
	39	15	11296.88	2.330504	-0.4195186	1	2.367963	-10.20464	-0.1162492	0.5503958	11
	40	16	10078.13	2.364267	-0.4287541	1	2.402829	-10.27874	-0.1163748	0.550395	11
	41	16	8953.125	2.401957	-0.43981	1	2.44189	-10.37619	-0.116378	0.5503115	11
	42	16	8015.625	2.438546	-0.4448572	1	2.478791	-10.33862	-0.116243	0.5503514	11
	43	16	7031.25	2.489663	-0.4542085	1	2.530756	-10.33921	-0.1160982	0.5503216	11
	44	17	6328.125	2.525687	-0.4598732	1	2.567212	-10.31928	-0.1160723	0.5503643	11
	45	17	5671.875	2.568523	-0.4663912	1	2.610523	-10.29161	-0.1160408	0.5503083	11
	46	17	5015.625	2.608564	-0.4650323	1	2.649691	-10.10801	-0.1155591	0.5503236	11
	47	18	4457.721	2.647866	-0.4663025	1	2.688611	-9.98767	-0.1157573	0.5503794	11
	48	18	3984.375	2.684448	-0.462039	1	2.723921	-9.76589	-0.1153173	0.5503699	11
	49	18	3538.603	2.725138	-0.4625707	1	2.764118	-9.63368	-0.1161264	0.550377	11
	50	19	3170.956	2.765951	-0.4590426	1	2.803784	-9.423033	-0.1156344	0.5503566	11
	51	19	2803.309	2.802901	-0.4517235	1	2.839068	-9.155228	-0.115816	0.5503132	11
	52	19	2527.573	2.842464	-0.4480292	1	2.877556	-8.95727	-0.1157089	0.5503129	11
	53	20	2251.838	2.877637	-0.4379601	1	2.910774	-8.653685	-0.1154751	0.5503142	11
	54	20	1976.103	2.925005	-0.4276799	1	2.956107	-8.31856	-0.1156024	0.55034	11
	55	20	1792.279	2.958559	-0.4205022	1	2.988293	-8.089312	-0.1155853	0.5503793	11
	56	20	1577.524	2.998198	-0.4076197	1	3.02578	-7.742174	-0.114863	0.5503668	11
	57	21	1424.632	3.026221	-0.3961813	1	3.052044	-7.458529	-0.1153469	0.5503567	11
	58	21	1265.625	3.048827	-0.3823638	1	3.07271	-7.148336	-0.1150663	0.550379	11
	59	21	1126.803	3.078296	-0.3696733	1	3.100413	-6.84787	-0.1156941	0.5503919	11
	60	22	998.264	3.111424	-0.358587	1	3.132019	-6.574249	-0.1151729	0.5503871	11
	61	22	894.8864	3.141628	-0.3420303	1	3.160192	-6.213345	-0.1151528	0.5503944	11
	62	22	796.875	3.171678	-0.3353023	1	3.189353	-6.034758	-0.1151228	0.5503517	11
	63	23	711.4955	3.195938	-0.3240317	1	3.212323	-5.789355	-0.1148482	0.5503069	11
	64	23	627.7902	3.223163	-0.3141778	1	3.238439	-5.567317	-0.1149571	0.550375	11
	65	23	564.2361	3.248859	-0.30425	1	3.263074	-5.350047	-0.114568	0.5503658	11
	66	24	505.5147	3.274439	-0.2945015	1	3.287656	-5.139328	-0.1139761	0.5503799	11
	67	24	444.5043	3.281819	-0.2862226	1	3.294277	-4.984417	-0.1143849	0.5503738	11
	68	24	397.9953	3.28541	-0.2762895	1	3.297007	-4.80703	-0.1149621	0.5503786	11
	69	24	357.5212	3.303901	-0.2701176	1	3.314924	-4.673946	-0.1150396	0.5503777	11
	70	25	315.5048	3.322783	-0.264621	1	3.333303	-4.553332	-0.1148854	0.5503789	11
	71	25	282.8664	3.336864	-0.2568821	1	3.346737	-4.402125	-0.1149152	0.5503749	11
	72	25	252.4038	3.356425	-0.2504016	1	3.365753	-4.266571	-0.1150511	0.5503721	11
	73	26	225.3606	3.37161	-0.2454846	1	3.380535	-4.164318	-0.1147944	0.5503758	11
	74	26	198.6229	3.39126	-0.239663	1	3.399718	-4.042417	-0.1149108	0.5503733	11
	75	26	177.5568	3.406813	-0.2302818	1	3.414587	-3.866997	-0.1149406	0.5503694	11
	76	27	158.3615	3.43722	-0.2293442	1	3.444862	-3.817331	-0.1147875	0.5503715	11
	77	27	141.1898	3.453469	-0.2185326	1	3.460377	-3.6208	-0.1146951	0.5503722	11
	78	27	125.558	3.473801	-0.2116352	1	3.480242	-3.486335	-0.1146697	0.5503777	11
	79	28	111.6071	3.487772	-0.20056	1	3.493533	-3.291099	-0.1147238	0.550375	11
	80	28	100.4464	3.496685	-0.2040999	1	3.502636	-3.340539	-0.1145814	0.5503722	11
	81	28	89.00317	3.507793	-0.1849874	1	3.512668	-3.018761	-0.1145894	0.5503728	11
	82	28	79.00281	3.54388	-0.1792913	1	3.548412	-2.896228	-0.1149713	0.5503711	11
	83	29	71.02273	3.534446	-0.1839291	1	3.539228	-2.978929	-0.1146406	0.5503695	11
	84	29	63.3446	3.557218	-0.1791238	1	3.561725	-2.882696	-0.1148809	0.5503712	11
	85	29	54.50582	3.598454	-0.1329932	1	3.600911	-2.116599	-0.1149532	0.5503685	11
	86	30	49.86702	3.590878	-0.1699914	1	3.5949	-2.710346	-0.1146029	0.5503706	11
	87	30	45.95588	3.568636	-0.0547143	1	3.569056	-0.8783904	-0.1148684	0.550378	11
	88	31	39.72458	3.629142	-0.1423115	1	3.631931	-2.24562	-0.1147347	0.5503744	11
	89	31	35.51136	3.612007	-0.1668089	1	3.615856	-2.644143	-0.1147354	0.5503764	11
	90	31	31.6723	3.729189	0.0222464	1	3.729255	0.3417925	-0.1148552	0.5503714	11
	91	31	28.58232	3.74108	0.0109668	1	3.741096	0.1679587	-0.114385	0.550374	11
	92	32	24.93351	3.612282	-0.1148961	1	3.614108	-1.821797	-0.1145919	0.5503735	11
	93	32	22.11085	3.576969	-0.0776784	1	3.577813	-1.244055	-0.1142413	0.5503781	11
	94	32	19.86229	3.766865	0.3189083	1	3.78034	4.839204	-0.1144062	0.5503736	11
	95	33	17.75568	3.548452	0.2654515	1	3.558367	4.278197	-0.1152305	0.5503788	11
	96	33	15.83615	4.144207	-0.2688808	1	4.15292	-3.712212	-0.1142037	0.5503678	11
	97	33	14.20455	4.246	-0.2347559	1	4.252485	-3.164588	-0.1140116	0.5503779	11
	98	33	12.40079	3.331089	-0.0595824	1	3.331622	-1.024727	-0.1143024	0.5503777	11
	99	34	11.26803	3.280179	-0.0966831	1	3.281603	-1.688302	-0.1142723	0.5503821	11
	100	34	9.93114	3.621501	0.0204786	1	3.621559	0.3239886	-0.1143277	0.5503745	11
	101	34	9.014423	3.594007	-0.0997299	1	3.595391	-1.58949	-0.1142316	0.5503772	11
	102	35	7.944915	3.640346	0.0610017	1	3.640857	0.960022	-0.1142389	0.5503772	11
	103	36	7.102273	3.620134	0.0851484	1	3.621136	1.347393	-0.1142344	0.5503781	11
	104	36	6.317385	3.77251	0.2122859	1	3.778478	3.22074	-0.1140701	0.5503752	11
	105	37	5.634015	3.678438	-0.1090796	1	3.680055	-1.698538	-0.1140317	0.5503794	11
	106	38	5.008013	3.661317	-0.0631046	1	3.661861	-0.987423	-0.1137862	0.5503726	11
	107	39	4.507212	3.793872	-0.0716672	1	3.794549	-1.082204	-0.1132401	0.5503778	11
	108	40	3.945707	3.795351	-0.0563355	1	3.795769	-0.8503959	-0.1136595	0.5503742	11
	109	41	3.535068	3.604407	-0.061583	1	3.604933	-0.978831	-0.1133005	0.5503836	11
	110	42	3.158693	3.864051	-0.0383617	1	3.864242	-0.5688056	-0.1127387	0.550381	11
	111	43	2.817007	3.826901	-0.0445617	1	3.82716	-0.6671408	-0.1135756	0.5503846	11
	112	44	2.504006	3.573879	-0.0694016	1	3.574553	-1.112494	-0.1136367	0.5503827	11
	113	45	2.253606	3.923054	-0.07091	1	3.923695	-1.035521	-0.1131661	0.5503796	11
	114	47	1.998082	3.712186	0.0231079	1	3.712258	0.3566547	-0.1132715	0.5503955	11
	115	48	1.767534	3.55704	0.1765022	1	3.561416	2.840716	-0.1130995	0.550366	11
	116	50	1.584686	3.61224	0.0472773	1	3.612549	0.7498493	-0.1129661	0.5503877	11
	117	52	1.420455	3.596969	0.156642	1	3.600378	2.49356	-0.1128457	0.550383	11
	118	54	1.266892	3.763904	-0.0348258	1	3.764065	-0.5301186	-0.1125588	0.5503609	11
	119	57	1.120875	3.848696	0.1087636	1	3.850233	1.61874	-0.1123158	0.5503463	11
	120	59	0.999041	3.735503	-0.0087949	1	3.735513	-0.134898	-0.111868	0.5503595	11
	121	63	0.8837669	3.694258	0.0332429	1	3.694408	0.5155634	-0.1123013	0.5495172	11
	122	66	0.7923428	3.753224	0.0939263	1	3.7544	1.433555	-0.1123912	0.5495162	11
	123	70	0.7102273	3.710227	-0.1255266	1	3.71235	-1.937726	-0.1121979	0.5495164	11
	124	74	0.633446	3.781581	-0.0122251	1	3.781601	-0.1852249	-0.1118037	0.5495229	11
	125	79	0.564759	3.596068	0.2351732	1	3.60375	3.741662	-0.1110789	0.5495214	11
	126	84	0.5040323	3.815897	0.0034053	1	3.815898	0.05113	-0.1114905	0.5495179	11
	127	90	0.4507211	4.023259	0.044449	1	4.023505	0.6329786	-0.1109225	0.5495121	11
	128	97	0.400641	3.517467	0.0773139	1	3.518316	1.259158	-0.1105193	0.5495121	11
	129	105	0.3551136	3.728111	0.257326	1	3.736981	3.948473	-0.1102955	0.5495152	11
	130	113	0.316723	3.983785	0.0379651	1	3.983966	0.5460076	-0.1096892	0.5495102	11
	131	126	0.2823795	3.828818	-0.0082995	1	3.828827	-0.1241961	-0.1094098	0.5495035	11
	132	137	0.2520161	3.87984	0.0200099	1	3.879891	0.2954949	-0.1092495	0.5495047	11
	133	149	0.2242823	4.015977	-0.0527372	1	4.016323	-0.7523559	-0.1086788	0.549508	11
	134	166	0.2003205	4.002152	0.1346333	1	4.004416	1.926716	-0.1082765	0.5495062	11
