EXPLAIN
TAG	EISPOT
TITLE	LABEL	Potentiostatic EIS	Test Identifier
DATE	LABEL	2019-10-16	Date
TIME	LABEL	17:30:01	Time
NOTES	NOTES	1	Notes...
	
PSTAT	PSTAT	REF3000-13111	Potentiostat
VDC	POTEN	5.50000E-001	F	DC Voltage (V)
FREQINIT	QUANT	1.00000E+006	Initial Freq. (Hz)
FREQFINAL	QUANT	2.00000E-001	Final Freq. (Hz)
PTSPERDEC	QUANT	2.00000E+001	Points/decade
VAC	QUANT	1.00000E+001	AC Voltage (mV rms)
AREA	QUANT	1.00000E+000	Sample Area (cm^2)
SPEED	SELECTOR	0	Optimize for:
ZGUESS	QUANT	1.00000E+006	Estimated Z (ohms)
EOC	QUANT	0.9483516	Open Circuit (V)
SEQUENCER	TOGGLE	TRUE	Run as Sequence
PSTATMODEL	IQUANT	5	Pstat Model
PSTATSECTION	LABEL	REF3000-13111	Pstat Section
PSTATSERIALNO	LABEL	13111	Pstat Serial Number
CTRLMODE	IQUANT	1	Control Mode
IESTAB	IQUANT	0	I/E Stability
CASPEED	IQUANT	1	Control Amp Speed
CONVENTION	IQUANT	1	Current Convention
ICHRANGE	IQUANT	2	Ich Range
ICHRANGEMODE	TOGGLE	F	Ich Auto Range
ICHOFFSETENABLE	TOGGLE	T	Ich Offset Enable
ICHOFFSET	QUANT	0	Ich Offset (V)
ICHFILTER	IQUANT	3	Ich Filter
VCHRANGE	IQUANT	2	Vch Range
VCHRANGEMODE	TOGGLE	F	Vch Auto Range
VCHOFFSETENABLE	TOGGLE	T	Vch Offset Enable
VCHOFFSET	QUANT	0	Vch Offset (V)
VCHFILTER	IQUANT	3	Vch Filter
ACHRANGE	IQUANT	2	Ach Range
ACHOFFSETENABLE	TOGGLE	F	Ach Offset Enable
ACHOFFSET	QUANT	0	Ach Offset (V)
ACHFILTER	IQUANT	3	Ach Filter
IERANGELOWERLIMIT	IQUANT	2	I/E Range Lower Limit
IERANGEMODE	TOGGLE	F	I/E AutoRange
IERANGE	IQUANT	11	I/E Range
POSFEEDENABLE	TOGGLE	F	Positive Feedback IR Comp
POSFEEDRESISTANCE	QUANT	0	Positive Feedback Resistance (ohm)
ACHSELECT	IQUANT	0	Ach Select
CABLEID	IQUANT	14	Cable ID
DCCALDATE	LABEL	2019-10-1	DC Calibration Date
ACCALDATE	LABEL	2019-10-1	AC Calibration Date
THERMOSELECT	IQUANT	1	Thermo Select
FRAMEWORKVERSION	QUANT	6.33	Framework Version
INSTRUMENTVERSION	LABEL	3.50	Instrument Version
COMPLIANCEVOLTAGE	IQUANT	0	Compliance Voltage
ZCURVE	TABLE
	Pt	Time	Freq	Zreal	Zimag	Zsig	Zmod	Zphz	Idc	Vdc	IERange
	#	s	Hz	ohm	ohm	V	ohm	°	A	V	#
	0	4	1000078	1.361012	1.824412	1	2.276144	53.27705	-0.1162447	0.5500393	11
	1	4	891328.1	1.30554	1.602143	1	2.066712	50.82439	-0.1152646	0.5500311	11
	2	4	794390.6	1.265199	1.40117	1	1.887858	47.91926	-0.1163504	0.5501338	11
	3	5	707953.1	1.240106	1.226434	1	1.744134	44.68241	-0.1156031	0.5502076	11
	4	5	630984.4	1.214134	1.071184	1	1.619122	41.42073	-0.1166146	0.5502326	11
	5	5	562359.4	1.203239	0.9296535	1	1.520539	37.6906	-0.115902	0.5502096	11
	6	6	501234.4	1.191311	0.8067205	1	1.438756	34.10469	-0.1167737	0.5500354	11
	7	6	446765.6	1.187639	0.6929128	1	1.374997	30.26087	-0.1162318	0.5501688	11
	8	6	398109.4	1.189549	0.5905388	1	1.328067	26.40161	-0.1166652	0.5502578	11
	9	7	354890.6	1.190771	0.4997356	1	1.291384	22.76652	-0.1165003	0.5502473	11
	10	7	316265.6	1.1977	0.4205097	1	1.269375	19.34606	-0.1168585	0.5502988	11
	11	7	281859.4	1.205426	0.347274	1	1.254452	16.07129	-0.1166753	0.5502766	11
	12	8	251203.1	1.211098	0.2803684	1	1.243127	13.03432	-0.116911	0.5503519	11
	13	8	223921.9	1.225084	0.219492	1	1.244591	10.15762	-0.1168904	0.5502794	11
	14	8	199546.9	1.236379	0.1656873	1	1.247431	7.63274	-0.1169361	0.5503526	11
	15	8	177890.6	1.250484	0.1154027	1	1.255798	5.272687	-0.1169237	0.5504051	11
	16	9	158578.1	1.266082	0.0743111	1	1.268261	3.35905	-0.1170628	0.550119	11
	17	9	141328.1	1.282308	0.0292365	1	1.282641	1.306113	-0.1172059	0.5503873	11
	18	9	125953.1	1.297845	-0.0065023	1	1.297861	-0.2870516	-0.1164525	0.5504119	11
	19	10	112265.6	1.314941	-0.0414404	1	1.315594	-1.805082	-0.1173889	0.5502573	11
	20	10	100078.1	1.336239	-0.0718264	1	1.338168	-3.076839	-0.1169176	0.5503654	11
	21	10	89203.13	1.353955	-0.1001798	1	1.357656	-4.231629	-0.1175698	0.5503197	11
	22	11	79453.13	1.373086	-0.1276406	1	1.379006	-5.31089	-0.1171599	0.5503263	11
	23	11	70828.13	1.393231	-0.1522251	1	1.401522	-6.23543	-0.1178385	0.5503781	11
	24	11	63140.62	1.415907	-0.1749014	1	1.426668	-7.041851	-0.1173576	0.5503684	11
	25	11	56296.87	1.435944	-0.1959559	1	1.449252	-7.770863	-0.117849	0.5503813	11
	26	12	50203.12	1.461228	-0.2149146	1	1.476948	-8.366968	-0.1175615	0.5503695	11
	27	12	44671.88	1.484061	-0.2327201	1	1.502197	-8.912148	-0.1178957	0.5503347	11
	28	12	39890.62	1.511276	-0.2478938	1	1.531472	-9.315245	-0.1177229	0.550378	11
	29	13	35484.37	1.537084	-0.2653495	1	1.55982	-9.79453	-0.11783	0.5503556	11
	30	13	31640.63	1.562568	-0.2777355	1	1.587059	-10.07866	-0.1180043	0.5503391	11
	31	13	28265.63	1.587697	-0.2896288	1	1.613898	-10.33826	-0.1178189	0.5503612	11
	32	14	25171.88	1.616293	-0.300913	1	1.644065	-10.54629	-0.1180379	0.5503224	11
	33	14	22453.13	1.64357	-0.3107437	1	1.672688	-10.70632	-0.1177146	0.5503753	11
	34	14	20015.62	1.674027	-0.3193808	1	1.704221	-10.80142	-0.1181946	0.5503122	11
	35	15	17859.38	1.700521	-0.3279278	1	1.731851	-10.91492	-0.117753	0.550382	11
	36	15	15890.62	1.730349	-0.3320707	1	1.761924	-10.86353	-0.1183307	0.5503478	11
	37	15	14203.12	1.759484	-0.3366716	1	1.791405	-10.83243	-0.1178579	0.5503443	11
	38	15	12609.37	1.789201	-0.3408704	1	1.821382	-10.78647	-0.1183852	0.5503784	11
	39	16	11296.88	1.81746	-0.3430639	1	1.849555	-10.68939	-0.1178983	0.5503401	11
	40	16	10078.13	1.844992	-0.3464566	1	1.877239	-10.63527	-0.1183937	0.5503115	11
	41	16	8953.125	1.8761	-0.3467268	1	1.907871	-10.47083	-0.1179755	0.5503477	11
	42	17	8015.625	1.902526	-0.3500774	1	1.934466	-10.42617	-0.1185516	0.5503179	11
	43	17	7031.25	1.93696	-0.3490206	1	1.968154	-10.21451	-0.1181271	0.5503497	11
	44	17	6328.125	1.959331	-0.3479141	1	1.989981	-10.06893	-0.1186874	0.5503103	11
	45	18	5671.875	1.988635	-0.3488561	1	2.019002	-9.94986	-0.1181281	0.5503849	11
	46	18	5015.625	2.015792	-0.3477766	1	2.045572	-9.78865	-0.1185694	0.55038	11
	47	18	4457.721	2.045673	-0.3468536	1	2.07487	-9.62325	-0.1183416	0.5503544	11
	48	18	3984.375	2.071917	-0.3442713	1	2.100324	-9.434117	-0.1185063	0.5503814	11
	49	19	3538.603	2.09903	-0.3441816	1	2.12706	-9.312023	-0.1185568	0.550366	11
	50	19	3170.956	2.123999	-0.3418424	1	2.151332	-9.142942	-0.1184635	0.5503634	11
	51	19	2803.309	2.156604	-0.3408687	1	2.183376	-8.981757	-0.1186653	0.5503711	11
	52	20	2527.573	2.178961	-0.3366817	1	2.204818	-8.783583	-0.1183607	0.5503422	11
	53	20	2251.838	2.207669	-0.3348086	1	2.232912	-8.623599	-0.1188026	0.5503682	11
	54	20	1976.103	2.236806	-0.3290705	1	2.260882	-8.369107	-0.1185243	0.5503135	11
	55	21	1792.279	2.260948	-0.325481	1	2.284256	-8.191891	-0.1190415	0.5503187	11
	56	21	1577.524	2.290511	-0.3184098	1	2.312536	-7.914114	-0.1185204	0.5503603	11
	57	21	1424.632	2.313913	-0.3127445	1	2.334952	-7.697354	-0.1190311	0.5503119	11
	58	22	1265.625	2.339813	-0.3041743	1	2.359502	-7.406878	-0.1184658	0.5503835	11
	59	22	1126.803	2.364993	-0.2962223	1	2.383472	-7.139285	-0.1190809	0.5503604	11
	60	22	998.264	2.389035	-0.2891738	1	2.406472	-6.901628	-0.118601	0.5503806	11
	61	22	894.8864	2.411712	-0.2806755	1	2.427989	-6.638231	-0.1190921	0.5503837	11
	62	23	796.875	2.430183	-0.2717467	1	2.44533	-6.380393	-0.1186107	0.5503098	11
	63	23	711.4955	2.451745	-0.2620507	1	2.465709	-6.100804	-0.119158	0.5503616	11
	64	23	627.7902	2.473141	-0.2517655	1	2.485923	-5.812681	-0.118707	0.5503317	11
	65	24	564.2361	2.484186	-0.2462728	1	2.496363	-5.661588	-0.1191259	0.5503451	11
	66	24	505.5147	2.499761	-0.2389662	1	2.511157	-5.460632	-0.1188492	0.5503855	11
	67	24	444.5043	2.51767	-0.231822	1	2.528321	-5.260845	-0.1190447	0.5503767	11
	68	25	397.9953	2.536301	-0.2268002	1	2.546421	-5.109892	-0.1189628	0.5503734	11
	69	25	357.5212	2.550209	-0.2183661	1	2.559541	-4.894114	-0.1192012	0.5503736	11
	70	25	315.5048	2.566989	-0.2132926	1	2.575835	-4.749827	-0.1190216	0.5503765	11
	71	26	282.8664	2.577532	-0.2086766	1	2.585966	-4.628563	-0.1190566	0.5503756	11
	72	26	252.4038	2.595912	-0.2035939	1	2.603883	-4.484452	-0.1190782	0.5503737	11
	73	26	225.3606	2.606072	-0.199821	1	2.613722	-4.384583	-0.1188562	0.5503759	11
	74	27	198.6229	2.623727	-0.19861	1	2.631233	-4.328901	-0.1193293	0.5503796	11
	75	27	177.5568	2.630928	-0.193926	1	2.638066	-4.215654	-0.1188215	0.5503782	11
	76	27	158.3615	2.650302	-0.1880561	1	2.656965	-4.058704	-0.1193212	0.5503781	11
	77	27	141.1898	2.662905	-0.1840466	1	2.669258	-3.953709	-0.1189289	0.5503777	11
	78	28	125.558	2.678252	-0.1820816	1	2.684434	-3.889283	-0.1194376	0.5503815	11
	79	28	111.6071	2.696156	-0.1801499	1	2.702168	-3.822667	-0.118899	0.550379	11
	80	28	100.4464	2.707621	-0.1744366	1	2.713234	-3.686146	-0.1193838	0.5503774	11
	81	29	89.00317	2.726112	-0.1796443	1	2.732025	-3.770204	-0.1189294	0.5503778	11
	82	29	79.00281	2.732154	-0.1673157	1	2.737273	-3.504387	-0.119436	0.5503786	11
	83	29	71.02273	2.741302	-0.1638363	1	2.746193	-3.420265	-0.1189502	0.5503752	11
	84	30	63.3446	2.767612	-0.1856931	1	2.773835	-3.838511	-0.1194436	0.5503773	11
	85	30	54.50582	2.781012	-0.1542651	1	2.785287	-3.174993	-0.1186938	0.5503742	11
	86	30	49.86702	2.783855	-0.1466005	1	2.787712	-3.014467	-0.1191332	0.5503715	11
	87	31	45.95588	2.781736	-0.1381947	1	2.785167	-2.844075	-0.119171	0.5503801	11
	88	31	39.72458	2.803504	-0.1409114	1	2.807043	-2.877414	-0.1193108	0.5503788	11
	89	31	35.51136	2.85	-0.1418733	1	2.853529	-2.849837	-0.1193609	0.5503769	11
	90	32	31.6723	2.82987	-0.0900635	1	2.831303	-1.822881	-0.1195538	0.5503771	11
	91	32	28.58232	2.806817	-0.1953514	1	2.813607	-3.981304	-0.1194026	0.5503776	11
	92	32	24.93351	2.832542	-0.132722	1	2.835649	-2.682697	-0.1196689	0.5503777	11
	93	33	22.11085	2.887686	-0.2646165	1	2.899785	-5.235744	-0.1194359	0.5503839	11
	94	33	19.86229	2.708552	-0.0345019	1	2.708772	-0.7298029	-0.1198925	0.5503781	11
	95	33	17.75568	2.740096	-0.2785546	1	2.754218	-5.804673	-0.1197182	0.5503808	11
	96	33	15.83615	2.997296	-0.0168907	1	2.997344	-0.3228755	-0.1192474	0.5503775	11
	97	34	14.20455	3.100798	-0.127736	1	3.103428	-2.35894	-0.119829	0.5503818	11
	98	34	12.40079	2.761843	0.0109141	1	2.761865	0.2264165	-0.1194094	0.5503803	11
	99	34	11.26803	3.045147	0.0416776	1	3.045432	0.7841335	-0.1199359	0.5503869	11
	100	34	9.93114	2.796078	-0.0714602	1	2.796991	-1.464006	-0.1193134	0.5503741	11
	101	35	9.014423	2.891123	-0.0833041	1	2.892323	-1.65045	-0.1200785	0.5503845	11
	102	35	7.944915	3.01519	-0.0703138	1	3.01601	-1.335887	-0.1195336	0.5503837	11
	103	36	7.102273	2.925986	-0.0711803	1	2.926852	-1.393556	-0.1195208	0.5503815	11
	104	36	6.317385	2.963682	-0.0594662	1	2.964278	-1.149485	-0.1197519	0.5503863	11
	105	37	5.634015	2.900095	-0.0219293	1	2.900178	-0.4332374	-0.1196459	0.5503856	11
	106	38	5.008013	2.990228	-0.0233537	1	2.990319	-0.4474713	-0.1199376	0.5503793	11
	107	39	4.507212	2.984236	-0.060919	1	2.984858	-1.169451	-0.1198742	0.5503806	11
	108	40	3.945707	3.035464	-0.0181618	1	3.035518	-0.3428078	-0.1200293	0.5503829	11
	109	40	3.535068	2.98434	-0.0010121	1	2.984341	-0.019432	-0.1199934	0.5503809	11
	110	41	3.158693	2.980697	-0.0047663	1	2.980701	-0.0916186	-0.1200533	0.5503832	11
	111	42	2.817007	2.925104	0.0235215	1	2.925199	0.4607191	-0.1201037	0.5503816	11
	112	44	2.504006	2.902611	-0.0304737	1	2.902771	-0.6015106	-0.1201278	0.5503814	11
	113	45	2.253606	2.917388	0.0509273	1	2.917832	1.000081	-0.12019	0.5503893	11
	114	46	1.998082	2.871268	-0.0645249	1	2.871993	-1.287369	-0.1201165	0.5503672	11
	115	48	1.767534	3.006671	0.1191333	1	3.00903	2.269044	-0.1201793	0.5503932	11
	116	50	1.584686	3.206896	0.0068988	1	3.206903	0.1232575	-0.1202947	0.5503759	11
	117	52	1.420455	2.959203	0.1790403	1	2.964614	3.462338	-0.1203456	0.5503779	11
	118	54	1.266892	3.095972	-0.03826	1	3.096209	-0.7080252	-0.1205493	0.5503953	11
	119	56	1.120875	3.025064	0.0121951	1	3.025088	0.2309788	-0.120641	0.5504078	11
	120	59	0.999041	2.94929	0.0972033	1	2.950892	1.887682	-0.1207336	0.5503917	11
	121	61	0.8837669	3.013322	0.087061	1	3.01458	1.654931	-0.1210757	0.5495272	11
	122	64	0.7923428	2.97427	-0.0034768	1	2.974272	-0.0669758	-0.1210603	0.549532	11
	123	68	0.7102273	2.987229	-0.0230243	1	2.987318	-0.4416024	-0.1210719	0.549525	11
	124	73	0.633446	3.071262	-0.0906304	1	3.072599	-1.69026	-0.1211595	0.5495243	11
	125	77	0.564759	3.009682	-0.0691547	1	3.010476	-1.316277	-0.1213382	0.549519	11
	126	83	0.5040323	3.032628	-0.0608732	1	3.033239	-1.14993	-0.1215873	0.549527	11
	127	89	0.4507211	3.070095	0.0201114	1	3.07016	0.3753252	-0.121737	0.5495273	11
	128	96	0.400641	2.956979	-0.0138933	1	2.957011	-0.2692002	-0.121916	0.5495319	11
	129	103	0.3551136	3.074956	-0.0702825	1	3.075759	-1.309348	-0.1221415	0.5495267	11
	130	112	0.316723	3.00178	-0.0107435	1	3.001799	-0.2050631	-0.1222242	0.5495258	11
	131	121	0.2823795	3.054514	0.0176701	1	3.054565	0.3314471	-0.1226129	0.54953	11
	132	132	0.2520161	3.077603	-0.0194921	1	3.077665	-0.3628793	-0.1227828	0.5495257	11
	133	144	0.2242823	3.07451	0.0716106	1	3.075344	1.334276	-0.122748	0.5495275	11
	134	157	0.2003205	3.015349	-0.0225218	1	3.015433	-0.4279365	-0.1231764	0.5495279	11
