EXPLAIN
TAG	EISPOT
TITLE	LABEL	Potentiostatic EIS	Test Identifier
DATE	LABEL	2019-10-16	Date
TIME	LABEL	17:21:53	Time
NOTES	NOTES	1	Notes...
	
PSTAT	PSTAT	REF3000-13111	Potentiostat
VDC	POTEN	0.00000E+000	T	DC Voltage (V)
FREQINIT	QUANT	1.00000E+006	Initial Freq. (Hz)
FREQFINAL	QUANT	2.00000E-001	Final Freq. (Hz)
PTSPERDEC	QUANT	2.00000E+001	Points/decade
VAC	QUANT	1.00000E+001	AC Voltage (mV rms)
AREA	QUANT	1.00000E+000	Sample Area (cm^2)
SPEED	SELECTOR	0	Optimize for:
ZGUESS	QUANT	1.00000E+006	Estimated Z (ohms)
EOC	QUANT	0.954279	Open Circuit (V)
SEQUENCER	TOGGLE	TRUE	Run as Sequence
PSTATMODEL	IQUANT	5	Pstat Model
PSTATSECTION	LABEL	REF3000-13111	Pstat Section
PSTATSERIALNO	LABEL	13111	Pstat Serial Number
CTRLMODE	IQUANT	1	Control Mode
IESTAB	IQUANT	0	I/E Stability
CASPEED	IQUANT	1	Control Amp Speed
CONVENTION	IQUANT	1	Current Convention
ICHRANGE	IQUANT	2	Ich Range
ICHRANGEMODE	TOGGLE	F	Ich Auto Range
ICHOFFSETENABLE	TOGGLE	T	Ich Offset Enable
ICHOFFSET	QUANT	0	Ich Offset (V)
ICHFILTER	IQUANT	3	Ich Filter
VCHRANGE	IQUANT	2	Vch Range
VCHRANGEMODE	TOGGLE	F	Vch Auto Range
VCHOFFSETENABLE	TOGGLE	T	Vch Offset Enable
VCHOFFSET	QUANT	0	Vch Offset (V)
VCHFILTER	IQUANT	3	Vch Filter
ACHRANGE	IQUANT	2	Ach Range
ACHOFFSETENABLE	TOGGLE	F	Ach Offset Enable
ACHOFFSET	QUANT	0	Ach Offset (V)
ACHFILTER	IQUANT	3	Ach Filter
IERANGELOWERLIMIT	IQUANT	2	I/E Range Lower Limit
IERANGEMODE	TOGGLE	F	I/E AutoRange
IERANGE	IQUANT	11	I/E Range
POSFEEDENABLE	TOGGLE	F	Positive Feedback IR Comp
POSFEEDRESISTANCE	QUANT	0	Positive Feedback Resistance (ohm)
ACHSELECT	IQUANT	0	Ach Select
CABLEID	IQUANT	14	Cable ID
DCCALDATE	LABEL	2019-10-1	DC Calibration Date
ACCALDATE	LABEL	2019-10-1	AC Calibration Date
THERMOSELECT	IQUANT	1	Thermo Select
FRAMEWORKVERSION	QUANT	6.33	Framework Version
INSTRUMENTVERSION	LABEL	3.50	Instrument Version
COMPLIANCEVOLTAGE	IQUANT	0	Compliance Voltage
ZCURVE	TABLE
	Pt	Time	Freq	Zreal	Zimag	Zsig	Zmod	Zphz	Idc	Vdc	IERange
	#	s	Hz	ohm	ohm	V	ohm	°	A	V	#
	0	4	1000078	1.497496	1.682974	1	2.252753	48.3376	-0.0002709	0.952782	10
	1	5	891328.1	1.422525	1.497853	1	2.065706	46.47755	-0.0001035	0.952705	10
	2	5	794390.6	1.362342	1.32258	1	1.898734	44.15155	-0.0002795	0.952966	10
	3	5	707953.1	1.311592	1.166788	1	1.755468	41.65619	0.0004322	0.953111	10
	4	6	630984.4	1.273289	1.025724	1	1.635046	38.85388	-0.0005328	0.95317	10
	5	6	562359.4	1.246828	0.8970488	1	1.535994	35.73367	-3.054903E-005	0.953211	10
	6	6	501234.4	1.228718	0.7797444	1	1.455248	32.39922	-0.0002168	0.953291	10
	7	6	446765.6	1.215227	0.6759353	1	1.390563	29.08374	0.0002046	0.953341	10
	8	7	398109.4	1.207678	0.5866339	1	1.342619	25.90832	-0.0003396	0.953409	10
	9	7	354890.6	1.20497	0.4990073	1	1.304209	22.49564	-2.013424E-005	0.953509	10
	10	7	316265.6	1.204339	0.4249875	1	1.277125	19.43693	1.890241E-005	0.953486	10
	11	8	281859.4	1.20397	0.3625937	1	1.257385	16.76046	0.0000969	0.95355	10
	12	8	251203.1	1.207299	0.3007026	1	1.244184	13.98611	1.62611E-005	0.953592	10
	13	8	223921.9	1.215457	0.2457701	1	1.240056	11.4313	-0.0001387	0.953648	10
	14	9	199546.9	1.22251	0.1963051	1	1.238171	9.122421	-5.461391E-008	0.953652	10
	15	9	177890.6	1.232778	0.1526793	1	1.242197	7.060119	-5.816791E-005	0.953665	10
	16	9	158578.1	1.242074	0.1124953	1	1.247158	5.17519	0.0001885	0.953721	10
	17	10	141328.1	1.253772	0.0773184	1	1.256154	3.528882	-0.0001135	0.95376	10
	18	10	125953.1	1.264216	0.0419943	1	1.264914	1.902534	0.0004471	0.953789	10
	19	10	112265.6	1.277971	0.0146687	1	1.278055	0.6576172	-0.0001724	0.953767	10
	20	10	100078.1	1.295917	-0.0068877	1	1.295935	-0.3045214	0.0001765	0.953769	10
	21	11	89203.13	1.307295	-0.0311675	1	1.307666	-1.365742	-8.134419E-005	0.953776	10
	22	11	79453.13	1.321706	-0.0552147	1	1.322859	-2.392157	0.0002001	0.953797	10
	23	11	70828.13	1.334463	-0.0741569	1	1.336522	-3.180687	-0.0001005	0.953802	10
	24	12	63140.62	1.349189	-0.0938321	1	1.352448	-3.978348	0.0004142	0.953806	10
	25	12	56296.87	1.364354	-0.1104124	1	1.368814	-4.626665	4.902021E-005	0.953811	10
	26	12	50203.12	1.380374	-0.1280162	1	1.386298	-5.298468	0.0005759	0.953775	10
	27	13	44671.88	1.396499	-0.141391	1	1.403638	-5.781312	-2.141312E-005	0.953798	10
	28	13	39890.62	1.414729	-0.1553774	1	1.423236	-6.267582	0.0004471	0.953781	10
	29	13	35484.37	1.430071	-0.1668284	1	1.439769	-6.653904	-5.667668E-005	0.953807	10
	30	14	31640.63	1.450498	-0.1793424	1	1.461543	-7.048392	0.0002642	0.953817	10
	31	14	28265.63	1.464562	-0.1887958	1	1.476681	-7.345457	0.0002809	0.953796	10
	32	14	25171.88	1.485332	-0.1988101	1	1.498578	-7.623668	0.0004077	0.953822	10
	33	14	22453.13	1.500315	-0.2084445	1	1.514726	-7.909688	0.0002934	0.95381	10
	34	15	20015.62	1.521543	-0.2171515	1	1.53696	-8.122288	0.0003342	0.953825	10
	35	15	17859.38	1.538083	-0.2241604	1	1.554332	-8.291914	0.0002279	0.953827	10
	36	15	15890.62	1.559616	-0.2323173	1	1.576823	-8.47237	0.0001921	0.953829	10
	37	16	14203.12	1.577025	-0.2388013	1	1.595002	-8.610611	0.0002867	0.953823	10
	38	16	12609.37	1.599298	-0.2474032	1	1.618321	-8.793661	4.266038E-006	0.953832	10
	39	16	11296.88	1.616182	-0.2537183	1	1.635976	-8.921827	0.0003024	0.953814	10
	40	17	10078.13	1.636719	-0.2605409	1	1.657326	-9.044735	0.0002353	0.95382	10
	41	17	8953.125	1.656486	-0.2665019	1	1.677787	-9.139647	0.0003339	0.953812	10
	42	17	8015.625	1.677711	-0.2728975	1	1.699761	-9.23885	-1.116554E-005	0.953814	10
	43	18	7031.25	1.700482	-0.2782064	1	1.72309	-9.291526	0.0003468	0.953819	10
	44	18	6328.125	1.722373	-0.2863617	1	1.746016	-9.439651	4.682354E-005	0.953833	10
	45	18	5671.875	1.746206	-0.2941199	1	1.770803	-9.5608	0.0008213	0.953809	10
	46	18	5015.625	1.763677	-0.2972733	1	1.788555	-9.56746	0.0003479	0.953803	10
	47	19	4457.721	1.789246	-0.3059801	1	1.815221	-9.70431	0.0004967	0.953822	10
	48	19	3984.375	1.80838	-0.309879	1	1.834738	-9.72361	-1.274118E-005	0.953803	10
	49	19	3538.603	1.832189	-0.3165406	1	1.859332	-9.80202	0.0004841	0.953823	10
	50	20	3170.956	1.85194	-0.3201486	1	1.879409	-9.8079	0.0001712	0.953826	10
	51	20	2803.309	1.878426	-0.3261496	1	1.906531	-9.85002	0.000549	0.953813	10
	52	20	2527.573	1.896665	-0.3313781	1	1.925396	-9.91047	0.0002951	0.95382	10
	53	21	2251.838	1.923942	-0.3374874	1	1.953318	-9.94929	0.0003526	0.953809	10
	54	21	1976.103	1.947652	-0.3433391	1	1.977682	-9.99759	0.0001893	0.953815	10
	55	21	1792.279	1.972254	-0.3488997	1	2.002877	-10.03206	0.000345	0.953795	10
	56	22	1577.524	1.994452	-0.3555174	1	2.02589	-10.107	0.0001809	0.953823	10
	57	22	1424.632	2.024292	-0.3641356	1	2.056783	-10.19747	0.0002074	0.953821	10
	58	22	1265.625	2.045337	-0.3699881	1	2.078532	-10.25355	0.0002528	0.953829	10
	59	22	1126.803	2.076418	-0.3803667	1	2.11097	-10.38058	0.0001073	0.953828	10
	60	23	998.264	2.100649	-0.3878472	1	2.136153	-10.46083	0.000381	0.953799	10
	61	23	894.8864	2.130242	-0.3968003	1	2.166883	-10.55156	0.0001281	0.953811	10
	62	23	796.875	2.155621	-0.4050715	1	2.19335	-10.64257	0.0003886	0.953815	10
	63	24	711.4955	2.185066	-0.4147979	1	2.224089	-10.74874	0.0001711	0.953815	10
	64	24	627.7902	2.217027	-0.426188	1	2.257619	-10.88146	0.0003512	0.953827	10
	65	24	564.2361	2.248868	-0.4354893	1	2.290646	-10.95957	0.0001508	0.953832	10
	66	25	505.5147	2.27894	-0.4464149	1	2.322252	-11.08317	0.0004672	0.953826	10
	67	25	444.5043	2.313482	-0.4557254	1	2.357941	-11.14383	0.0001147	0.953838	10
	68	25	397.9953	2.347293	-0.467367	1	2.393369	-11.26084	0.0006484	0.95383	10
	69	26	357.5212	2.384381	-0.4759313	1	2.431416	-11.2881	0.0001702	0.953833	10
	70	26	315.5048	2.425277	-0.491618	1	2.474603	-11.45893	0.0003013	0.953832	10
	71	26	282.8664	2.461186	-0.4995898	1	2.511379	-11.47442	0.0001935	0.953833	10
	72	26	252.4038	2.500705	-0.5138968	1	2.552962	-11.61266	0.0005085	0.953829	10
	73	27	225.3606	2.529081	-0.519473	1	2.58188	-11.60711	-5.15352E-005	0.953839	10
	74	27	198.6229	2.581454	-0.5357955	1	2.636472	-11.72558	0.0003473	0.953832	10
	75	27	177.5568	2.615557	-0.5354978	1	2.669812	-11.57059	0.0004315	0.953832	10
	76	28	158.3615	2.664565	-0.5502446	1	2.720786	-11.66782	0.0006902	0.953826	10
	77	28	141.1898	2.704112	-0.5515078	1	2.75978	-11.52746	0.0001916	0.953837	10
	78	28	125.558	2.75475	-0.5656204	1	2.812218	-11.60302	0.0006237	0.953833	10
	79	29	111.6071	2.800671	-0.5647483	1	2.857044	-11.40067	0.0001791	0.95384	10
	80	29	100.4464	2.844727	-0.5694394	1	2.90116	-11.3195	0.0004987	0.953829	10
	81	29	89.00317	2.889981	-0.5678251	1	2.945236	-11.11591	0.0002715	0.953833	10
	82	30	79.00281	2.948671	-0.5797765	1	3.005129	-11.12377	0.0004294	0.95383	10
	83	30	71.02273	2.987383	-0.5826392	1	3.04367	-11.03605	0.0001979	0.953832	10
	84	30	63.3446	3.043411	-0.5709723	1	3.096508	-10.62571	0.0005614	0.953831	10
	85	31	54.50582	3.087559	-0.569428	1	3.139629	-10.44945	0.0001509	0.953835	10
	86	31	49.86702	3.143713	-0.5845029	1	3.197589	-10.5326	0.0004423	0.953829	10
	87	31	45.95588	3.142172	-0.557009	1	3.19116	-10.05233	0.0002075	0.953842	10
	88	32	39.72458	3.214973	-0.5865536	1	3.268041	-10.33957	0.0006311	0.953834	10
	89	32	35.51136	3.239725	-0.5344995	1	3.283521	-9.368436	5.329419E-005	0.953836	10
	90	32	31.6723	3.297579	-0.5529882	1	3.343624	-9.51965	0.0004561	0.953831	10
	91	33	28.58232	3.388601	-0.4037154	1	3.412565	-6.794153	8.17105E-005	0.953837	10
	92	33	24.93351	3.446821	-0.5461983	1	3.489829	-9.004467	0.0005083	0.953828	10
	93	33	22.11085	3.293529	-0.4471506	1	3.323744	-7.73157	1.581484E-005	0.953842	10
	94	33	19.86229	3.436686	-0.3112392	1	3.45075	-5.174805	0.0003703	0.953834	10
	95	34	17.75568	3.365061	-0.2854161	1	3.377143	-4.848083	0.0003625	0.953832	10
	96	34	15.83615	3.655245	-0.6507593	1	3.712722	-10.09485	-3.083761E-005	0.953834	10
	97	34	14.20455	3.569337	-0.713192	1	3.639891	-11.29951	0.000492	0.953834	10
	98	34	12.40079	3.839686	-0.2619063	1	3.848608	-3.902121	0.0001665	0.953834	10
	99	35	11.26803	4.0022	-0.4317361	1	4.025419	-6.156955	0.0004004	0.953837	10
	100	35	9.93114	3.70354	-0.2159242	1	3.709829	-3.336687	0.000268	0.953837	10
	101	35	9.014423	4.02176	-0.1175166	1	4.023477	-1.673717	0.0003751	0.953836	10
	102	36	7.944915	3.714786	-0.5445406	1	3.754486	-8.339441	0.0007557	0.953827	10
	103	36	7.102273	3.76493	-0.3264877	1	3.779059	-4.956185	0.0001181	0.953844	10
	104	37	6.317385	3.873184	-0.2981722	1	3.884644	-4.402161	0.0004699	0.95384	10
	105	38	5.634015	3.941076	-0.4525841	1	3.966978	-6.551019	0.0002942	0.95384	10
	106	38	5.008013	3.823585	-0.1743174	1	3.827556	-2.610309	0.0006762	0.953839	10
	107	39	4.507212	3.901212	-0.2748844	1	3.910884	-4.030473	0.0003053	0.953838	10
	108	40	3.945707	3.994327	-0.169956	1	3.997941	-2.436428	0.0002931	0.953839	10
	109	41	3.535068	3.922278	-0.1724611	1	3.926067	-2.517652	0.0002249	0.953842	10
	110	42	3.158693	3.953768	-0.1913668	1	3.958397	-2.771017	0.0004125	0.953847	10
	111	43	2.817007	3.977839	-0.2085005	1	3.983299	-3.000443	0.0003127	0.953841	10
	112	44	2.504006	3.968414	-0.3674763	1	3.985391	-5.290519	0.0002112	0.953837	10
	113	46	2.253606	3.90814	-0.2732042	1	3.917677	-3.99884	0.0004319	0.953819	10
	114	47	1.998082	3.964141	-0.4270978	1	3.987083	-6.149344	0.0005424	0.953842	10
	115	49	1.767534	3.852895	0.0246961	1	3.852975	0.3672465	0.0004945	0.953822	10
	116	50	1.584686	4.12444	0.1521606	1	4.127246	2.112823	0.0006668	0.953813	10
	117	52	1.420455	3.871987	0.1673485	1	3.875602	2.474801	0.0006372	0.953832	10
	118	54	1.266892	4.169359	-0.2021974	1	4.174259	-2.776444	0.0008764	0.953807	10
	119	57	1.120875	4.124589	-0.0780051	1	4.125327	-1.083461	0.00076	0.953813	10
	120	60	0.999041	4.122309	-0.0322078	1	4.122435	-0.4476458	0.0004883	0.953837	10
	121	62	0.8837669	4.081306	-0.2331383	1	4.087959	-3.26938	0.0003598	0.952978	10
	122	65	0.7923428	4.046507	-0.0075069	1	4.046515	-0.1062928	0.0001982	0.952979	10
	123	69	0.7102273	4.080514	-0.0316989	1	4.080637	-0.4450852	0.0001907	0.952975	10
	124	73	0.633446	3.997334	-0.0426279	1	3.997561	-0.6109836	0.0002052	0.95298	10
	125	78	0.564759	4.006312	-0.0379575	1	4.006492	-0.542828	7.693156E-005	0.952982	10
	126	84	0.5040323	4.071536	-0.0578191	1	4.071946	-0.8135921	0.0002088	0.952983	10
	127	90	0.4507211	4.012107	-0.1344768	1	4.01436	-1.919708	0.0002252	0.952982	10
	128	96	0.400641	3.909261	0.022218	1	3.909324	0.3256329	0.0003417	0.95298	10
	129	104	0.3551136	4.091721	-0.1596286	1	4.094834	-2.234124	0.0002736	0.952975	10
	130	112	0.316723	4.124759	-0.176079	1	4.128516	-2.444377	0.0001279	0.952978	10
	131	122	0.2823795	4.342512	-0.0596969	1	4.342922	-0.7876008	8.304254E-005	0.952973	10
	132	133	0.2520161	4.165009	-0.0677728	1	4.16556	-0.9322322	0.0002874	0.952968	10
	133	145	0.2242823	4.169257	-0.1090892	1	4.170683	-1.498811	0.0004	0.952972	10
	134	158	0.2003205	4.193955	-0.0194337	1	4.194	-0.2654924	0.0002175	0.952966	10
