EXPLAIN
TAG	EISPOT
TITLE	LABEL	Potentiostatic EIS	Test Identifier
DATE	LABEL	2019-10-16	Date
TIME	LABEL	17:26:27	Time
NOTES	NOTES	1	Notes...
	
PSTAT	PSTAT	REF3000-13111	Potentiostat
VDC	POTEN	7.50000E-001	F	DC Voltage (V)
FREQINIT	QUANT	1.00000E+006	Initial Freq. (Hz)
FREQFINAL	QUANT	2.00000E-001	Final Freq. (Hz)
PTSPERDEC	QUANT	2.00000E+001	Points/decade
VAC	QUANT	1.00000E+001	AC Voltage (mV rms)
AREA	QUANT	1.00000E+000	Sample Area (cm^2)
SPEED	SELECTOR	0	Optimize for:
ZGUESS	QUANT	1.00000E+006	Estimated Z (ohms)
EOC	QUANT	0.9496976	Open Circuit (V)
SEQUENCER	TOGGLE	TRUE	Run as Sequence
PSTATMODEL	IQUANT	5	Pstat Model
PSTATSECTION	LABEL	REF3000-13111	Pstat Section
PSTATSERIALNO	LABEL	13111	Pstat Serial Number
CTRLMODE	IQUANT	1	Control Mode
IESTAB	IQUANT	0	I/E Stability
CASPEED	IQUANT	1	Control Amp Speed
CONVENTION	IQUANT	1	Current Convention
ICHRANGE	IQUANT	2	Ich Range
ICHRANGEMODE	TOGGLE	F	Ich Auto Range
ICHOFFSETENABLE	TOGGLE	T	Ich Offset Enable
ICHOFFSET	QUANT	0	Ich Offset (V)
ICHFILTER	IQUANT	3	Ich Filter
VCHRANGE	IQUANT	2	Vch Range
VCHRANGEMODE	TOGGLE	F	Vch Auto Range
VCHOFFSETENABLE	TOGGLE	T	Vch Offset Enable
VCHOFFSET	QUANT	0	Vch Offset (V)
VCHFILTER	IQUANT	3	Vch Filter
ACHRANGE	IQUANT	2	Ach Range
ACHOFFSETENABLE	TOGGLE	F	Ach Offset Enable
ACHOFFSET	QUANT	0	Ach Offset (V)
ACHFILTER	IQUANT	3	Ach Filter
IERANGELOWERLIMIT	IQUANT	2	I/E Range Lower Limit
IERANGEMODE	TOGGLE	F	I/E AutoRange
IERANGE	IQUANT	11	I/E Range
POSFEEDENABLE	TOGGLE	F	Positive Feedback IR Comp
POSFEEDRESISTANCE	QUANT	0	Positive Feedback Resistance (ohm)
ACHSELECT	IQUANT	0	Ach Select
CABLEID	IQUANT	14	Cable ID
DCCALDATE	LABEL	2019-10-1	DC Calibration Date
ACCALDATE	LABEL	2019-10-1	AC Calibration Date
THERMOSELECT	IQUANT	1	Thermo Select
FRAMEWORKVERSION	QUANT	6.33	Framework Version
INSTRUMENTVERSION	LABEL	3.50	Instrument Version
COMPLIANCEVOLTAGE	IQUANT	0	Compliance Voltage
ZCURVE	TABLE
	Pt	Time	Freq	Zreal	Zimag	Zsig	Zmod	Zphz	Idc	Vdc	IERange
	#	s	Hz	ohm	ohm	V	ohm	°	A	V	#
	0	4	1000078	1.369503	1.818544	1	2.276541	53.01746	-0.0496648	0.7492483	11
	1	4	891328.1	1.312719	1.591429	1	2.062978	50.48187	-0.0485706	0.7494923	11
	2	5	794390.6	1.269226	1.395756	1	1.88655	47.71829	-0.0497384	0.7496243	11
	3	5	707953.1	1.24612	1.217727	1	1.742319	44.33976	-0.0489334	0.74964	11
	4	5	630984.4	1.219297	1.062175	1	1.617066	41.06031	-0.049659	0.749579	11
	5	5	562359.4	1.207094	0.9227004	1	1.519359	37.39423	-0.048955	0.7496304	11
	6	6	501234.4	1.202104	0.7964811	1	1.442025	33.52735	-0.0494472	0.7497237	11
	7	6	446765.6	1.199579	0.6847186	1	1.381242	29.71768	-0.0488886	0.7497576	11
	8	6	398109.4	1.199579	0.5847234	1	1.3345	25.98648	-0.0495572	0.7497835	11
	9	7	354890.6	1.198524	0.4926635	1	1.29583	22.34554	-0.0491688	0.7496563	11
	10	7	316265.6	1.205238	0.4083652	1	1.272541	18.71768	-0.0497432	0.7496848	11
	11	7	281859.4	1.214249	0.3387022	1	1.260602	15.5859	-0.0490627	0.7498664	11
	12	8	251203.1	1.223357	0.2716302	1	1.25315	12.51868	-0.0494966	0.7498727	11
	13	8	223921.9	1.236223	0.2095114	1	1.253851	9.61892	-0.0493326	0.7499337	11
	14	8	199546.9	1.247882	0.1540975	1	1.257361	7.039659	-0.049494	0.7498925	11
	15	9	177890.6	1.263599	0.1061287	1	1.268048	4.800962	-0.0494235	0.7499854	11
	16	9	158578.1	1.276408	0.0602898	1	1.277831	2.704296	-0.0492732	0.7499748	11
	17	9	141328.1	1.292204	0.0178876	1	1.292328	0.7930766	-0.0493693	0.749914	11
	18	9	125953.1	1.306576	-0.0179458	1	1.306699	-0.786907	-0.0492332	0.7500143	11
	19	10	112265.6	1.325485	-0.0567886	1	1.326701	-2.45326	-0.049484	0.750064	11
	20	10	100078.1	1.345544	-0.0892445	1	1.348501	-3.794639	-0.0491838	0.7499707	11
	21	10	89203.13	1.364816	-0.120635	1	1.370137	-5.051198	-0.0496258	0.7499409	11
	22	11	79453.13	1.384597	-0.1498304	1	1.39268	-6.176076	-0.0491209	0.7499373	11
	23	11	70828.13	1.405226	-0.1762196	1	1.416233	-7.147749	-0.049705	0.7499863	11
	24	11	63140.62	1.428342	-0.2032758	1	1.442734	-8.09971	-0.0492339	0.7499693	11
	25	12	56296.87	1.451783	-0.227621	1	1.469519	-8.910705	-0.0498058	0.7499892	11
	26	12	50203.12	1.477525	-0.2517363	1	1.498817	-9.66904	-0.0491602	0.7499857	11
	27	12	44671.88	1.502434	-0.2734813	1	1.527121	-10.31635	-0.0496283	0.74999	11
	28	13	39890.62	1.530276	-0.2949576	1	1.558443	-10.90985	-0.049348	0.7499897	11
	29	13	35484.37	1.557099	-0.3152571	1	1.588693	-11.44564	-0.0495503	0.7499692	11
	30	13	31640.63	1.589282	-0.3334783	1	1.623892	-11.85042	-0.0493471	0.7499788	11
	31	13	28265.63	1.617861	-0.3516409	1	1.655634	-12.26248	-0.0494893	0.7499601	11
	32	14	25171.88	1.654395	-0.3691802	1	1.695086	-12.57952	-0.0494626	0.7499679	11
	33	14	22453.13	1.684347	-0.3832435	1	1.727397	-12.81841	-0.0493836	0.7499682	11
	34	14	20015.62	1.718584	-0.3966249	1	1.763758	-12.99552	-0.049504	0.7499617	11
	35	15	17859.38	1.754507	-0.4095791	1	1.80168	-13.14004	-0.0492621	0.7499945	11
	36	15	15890.62	1.79161	-0.4214478	1	1.840513	-13.23726	-0.0496245	0.7499598	11
	37	15	14203.12	1.827013	-0.4328032	1	1.877577	-13.32719	-0.0492987	0.7499684	11
	38	16	12609.37	1.865781	-0.4407719	1	1.917139	-13.29185	-0.0497599	0.7499436	11
	39	16	11296.88	1.902573	-0.4482068	1	1.954654	-13.256	-0.0491315	0.7499743	11
	40	16	10078.13	1.93983	-0.4541565	1	1.992285	-13.17686	-0.049604	0.7499439	11
	41	17	8953.125	1.980385	-0.4591906	1	2.032924	-13.05445	-0.0491282	0.7499771	11
	42	17	8015.625	2.017465	-0.463359	1	2.069992	-12.93501	-0.0495011	0.7499668	11
	43	17	7031.25	2.062475	-0.4670286	1	2.114691	-12.75894	-0.0490564	0.7499462	11
	44	17	6328.125	2.09727	-0.4679961	1	2.148851	-12.5792	-0.0495953	0.7499484	11
	45	18	5671.875	2.137054	-0.4695804	1	2.188037	-12.3928	-0.0489449	0.7499694	11
	46	18	5015.625	2.176558	-0.4691749	1	2.226551	-12.16444	-0.0495073	0.7500044	11
	47	18	4457.721	2.22054	-0.4661143	1	2.268934	-11.85486	-0.0491768	0.749947	11
	48	19	3984.375	2.253089	-0.4687063	1	2.301325	-11.75154	-0.0494689	0.7499617	11
	49	19	3538.603	2.296273	-0.4640236	1	2.342688	-11.4243	-0.0490788	0.749982	11
	50	19	3170.956	2.330228	-0.4604504	1	2.375285	-11.17759	-0.0494847	0.7499973	11
	51	20	2803.309	2.372776	-0.457771	1	2.416531	-10.91971	-0.0492879	0.7499665	11
	52	20	2527.573	2.401015	-0.4499623	1	2.442813	-10.6144	-0.0493058	0.7499806	11
	53	20	2251.838	2.440136	-0.4450247	1	2.480385	-10.33584	-0.0492878	0.7499624	11
	54	21	1976.103	2.476801	-0.4357235	1	2.514835	-9.97749	-0.049315	0.7499536	11
	55	21	1792.279	2.506826	-0.4357717	1	2.54442	-9.86141	-0.0494203	0.7499794	11
	56	21	1577.524	2.541698	-0.4236079	1	2.576756	-9.462139	-0.0493444	0.7499394	11
	57	21	1424.632	2.573293	-0.4182567	1	2.607062	-9.231982	-0.0494065	0.7499521	11
	58	22	1265.625	2.603377	-0.4092204	1	2.635343	-8.93313	-0.0493914	0.7499976	11
	59	22	1126.803	2.638206	-0.4011373	1	2.668528	-8.64556	-0.0493591	0.749986	11
	60	22	998.264	2.664932	-0.3897958	1	2.693288	-8.321564	-0.0492177	0.7499714	11
	61	23	894.8864	2.693926	-0.3882688	1	2.721762	-8.201419	-0.0493513	0.7499949	11
	62	23	796.875	2.714277	-0.3775814	1	2.740414	-7.919557	-0.0491914	0.7499621	11
	63	23	711.4955	2.74457	-0.3741675	1	2.769958	-7.76328	-0.0492996	0.7499797	11
	64	24	627.7902	2.771928	-0.3676129	1	2.796198	-7.554478	-0.0490186	0.7499901	11
	65	24	564.2361	2.794606	-0.3606184	1	2.817778	-7.352864	-0.0494484	0.7499768	11
	66	24	505.5147	2.818585	-0.3569312	1	2.841095	-7.217228	-0.0490168	0.7499583	11
	67	25	444.5043	2.851018	-0.3546408	1	2.872991	-7.090653	-0.0494974	0.7499957	11
	68	25	397.9953	2.874219	-0.3466895	1	2.895052	-6.877813	-0.0490554	0.7499956	11
	69	25	357.5212	2.898511	-0.3437725	1	2.918827	-6.763861	-0.0494827	0.749996	11
	70	25	315.5048	2.92595	-0.3394146	1	2.94557	-6.616823	-0.0489577	0.7499951	11
	71	26	282.8664	2.947073	-0.3368956	1	2.966266	-6.521477	-0.0494607	0.7499956	11
	72	26	252.4038	2.979269	-0.334491	1	2.997988	-6.405932	-0.0487708	0.749992	11
	73	26	225.3606	2.994632	-0.3285448	1	3.012601	-6.260951	-0.0491756	0.7499958	11
	74	27	198.6229	3.021265	-0.3255813	1	3.038757	-6.150644	-0.0487481	0.7499982	11
	75	27	177.5568	3.037608	-0.322635	1	3.054694	-6.062855	-0.0492879	0.7499961	11
	76	27	158.3615	3.066346	-0.3180572	1	3.082797	-5.921837	-0.0488295	0.7499909	11
	77	28	141.1898	3.085719	-0.3118466	1	3.101436	-5.77079	-0.0493656	0.7499908	11
	78	28	125.558	3.119253	-0.3099402	1	3.134614	-5.674489	-0.0488823	0.7499952	11
	79	28	111.6071	3.134434	-0.3074961	1	3.149482	-5.602935	-0.0494069	0.7499964	11
	80	29	100.4464	3.159454	-0.2938912	1	3.173094	-5.314339	-0.049033	0.7499909	11
	81	29	89.00317	3.160058	-0.2967606	1	3.173962	-5.364905	-0.0493545	0.7499912	11
	82	29	79.00281	3.206044	-0.2863711	1	3.218808	-5.104243	-0.0488205	0.7499889	11
	83	30	71.02273	3.228261	-0.2877841	1	3.241063	-5.094181	-0.0492213	0.7499892	11
	84	30	63.3446	3.257041	-0.2750385	1	3.268634	-4.826848	-0.0488009	0.7499878	11
	85	30	54.50582	3.278506	-0.2640905	1	3.289125	-4.605351	-0.04927	0.7499869	11
	86	31	49.86702	3.296912	-0.2699232	1	3.307943	-4.680454	-0.0488314	0.7499868	11
	87	31	45.95588	3.325107	-0.3113841	1	3.339655	-5.349938	-0.0493484	0.7499976	11
	88	31	39.72458	3.358592	-0.2409963	1	3.367227	-4.104234	-0.0487831	0.7499933	11
	89	32	35.51136	3.329101	-0.2262264	1	3.336779	-3.887512	-0.0492214	0.7499928	11
	90	32	31.6723	3.341434	-0.2389904	1	3.349969	-4.091018	-0.0486925	0.7499909	11
	91	32	28.58232	3.483891	-0.1228782	1	3.486057	-2.020007	-0.0492555	0.7499903	11
	92	33	24.93351	3.443272	-0.2430719	1	3.451841	-4.037999	-0.0487316	0.7499892	11
	93	33	22.11085	3.894857	-0.1813668	1	3.899077	-2.666094	-0.0493096	0.7499977	11
	94	33	19.86229	3.173406	-0.4129561	1	3.200162	-7.414251	-0.0491758	0.7499931	11
	95	33	17.75568	3.323522	-0.3164185	1	3.338551	-5.438497	-0.0487396	0.7499927	11
	96	33	15.83615	3.786687	-0.2233455	1	3.793267	-3.375497	-0.0492342	0.7499961	11
	97	34	14.20455	3.55646	-0.3457465	1	3.573227	-5.552644	-0.0488362	0.7499942	11
	98	34	12.40079	3.451938	0.192294	1	3.457289	3.188429	-0.0489602	0.7499931	11
	99	34	11.26803	3.805606	-0.0269194	1	3.805701	-0.4052814	-0.0492327	0.7500016	11
	100	35	9.93114	3.631042	-0.0564227	1	3.631481	-0.8902465	-0.0489809	0.7499977	11
	101	35	9.014423	3.633308	-0.0757648	1	3.634098	-1.194607	-0.0488716	0.7499978	11
	102	36	7.944915	3.518512	-0.1691458	1	3.522575	-2.752268	-0.0490089	0.75	11
	103	36	7.102273	3.547357	-0.1001374	1	3.54877	-1.616958	-0.0490945	0.7500004	11
	104	37	6.317385	3.453901	-0.1021991	1	3.455412	-1.694858	-0.0489547	0.7499981	11
	105	38	5.634015	3.591885	0.0237393	1	3.591963	0.3786702	-0.0488875	0.7499949	11
	106	38	5.008013	3.544167	-0.1610151	1	3.547823	-2.601216	-0.0490658	0.7499973	11
	107	39	4.507212	3.571556	-0.1752464	1	3.575853	-2.809093	-0.0488061	0.7499905	11
	108	40	3.945707	3.611936	-0.114358	1	3.613746	-1.813444	-0.0490919	0.7499961	11
	109	41	3.535068	3.582627	-0.0476976	1	3.582945	-0.7627671	-0.0488828	0.7499998	11
	110	43	3.158693	3.560257	-0.0499701	1	3.560608	-0.8041245	-0.0491204	0.7500048	11
	111	44	2.817007	3.663593	-0.1151311	1	3.665402	-1.79997	-0.0491163	0.7499977	11
	112	45	2.504006	3.621099	-0.0706887	1	3.621789	-1.118349	-0.0489834	0.7499965	11
	113	46	2.253606	3.696953	-0.1499792	1	3.699994	-2.32312	-0.0489859	0.7499916	11
	114	48	1.998082	3.780327	-0.0205563	1	3.780382	-0.3115543	-0.0488909	0.7500136	11
	115	49	1.767534	3.408872	-0.166592	1	3.412941	-2.797826	-0.0491062	0.7499855	11
	116	51	1.584686	3.428916	0.0394469	1	3.429143	0.6591133	-0.0491003	0.749985	11
	117	53	1.420455	3.29644	-0.1697327	1	3.300807	-2.94754	-0.0488477	0.7500074	11
	118	55	1.266892	3.652722	0.0697375	1	3.653388	1.093753	-0.0490072	0.749976	11
	119	57	1.120875	3.60532	0.0398421	1	3.60554	0.633145	-0.0489263	0.7499787	11
	120	60	0.999041	3.468591	0.0208393	1	3.468654	0.3442295	-0.0487574	0.749989	11
	121	62	0.8837669	3.578072	-0.0804225	1	3.578975	-1.287591	-0.0488149	0.7491379	11
	122	66	0.7923428	3.628762	-0.0826864	1	3.629704	-1.305339	-0.0487171	0.7491368	11
	123	71	0.7102273	3.691772	0.1087136	1	3.693372	1.686732	-0.048767	0.7491387	11
	124	75	0.633446	3.604323	0.0197252	1	3.604377	0.3135569	-0.0487491	0.7491381	11
	125	80	0.564759	3.760601	0.0169789	1	3.760639	0.2586855	-0.0485263	0.7491383	11
	126	85	0.5040323	3.601174	0.024713	1	3.601259	0.3931855	-0.048441	0.7491377	11
	127	91	0.4507211	3.642114	-0.0516905	1	3.642481	-0.8131128	-0.0483167	0.7491351	11
	128	98	0.400641	3.629827	-0.0112725	1	3.629845	-0.1779325	-0.0482267	0.7491361	11
	129	106	0.3551136	3.634279	-0.0940367	1	3.635495	-1.482193	-0.0482094	0.7491369	11
	130	114	0.316723	3.697005	0.0109791	1	3.697021	0.1701521	-0.0479926	0.7491375	11
	131	124	0.2823795	3.653588	0.0145716	1	3.653617	0.2285116	-0.0479487	0.7491392	11
	132	134	0.2520161	3.629859	-0.0101869	1	3.629873	-0.1607953	-0.0478516	0.7491379	11
	133	146	0.2242823	3.696008	-0.0497104	1	3.696342	-0.7705683	-0.0477571	0.7491339	11
	134	160	0.2003205	3.631081	-0.1041593	1	3.632575	-1.643106	-0.0476072	0.749131	11
