EXPLAIN
TAG	EISPOT
TITLE	LABEL	Potentiostatic EIS	Test Identifier
DATE	LABEL	2019-10-16	Date
TIME	LABEL	16:55:26	Time
NOTES	NOTES	1	Notes...
	
PSTAT	PSTAT	REF3000-13111	Potentiostat
VDC	POTEN	5.50000E-001	F	DC Voltage (V)
FREQINIT	QUANT	1.00000E+006	Initial Freq. (Hz)
FREQFINAL	QUANT	2.00000E-001	Final Freq. (Hz)
PTSPERDEC	QUANT	2.00000E+001	Points/decade
VAC	QUANT	1.00000E+001	AC Voltage (mV rms)
AREA	QUANT	1.00000E+000	Sample Area (cm^2)
SPEED	SELECTOR	0	Optimize for:
ZGUESS	QUANT	1.00000E+006	Estimated Z (ohms)
EOC	QUANT	0.953911	Open Circuit (V)
SEQUENCER	TOGGLE	TRUE	Run as Sequence
PSTATMODEL	IQUANT	5	Pstat Model
PSTATSECTION	LABEL	REF3000-13111	Pstat Section
PSTATSERIALNO	LABEL	13111	Pstat Serial Number
CTRLMODE	IQUANT	1	Control Mode
IESTAB	IQUANT	0	I/E Stability
CASPEED	IQUANT	1	Control Amp Speed
CONVENTION	IQUANT	1	Current Convention
ICHRANGE	IQUANT	2	Ich Range
ICHRANGEMODE	TOGGLE	F	Ich Auto Range
ICHOFFSETENABLE	TOGGLE	T	Ich Offset Enable
ICHOFFSET	QUANT	0	Ich Offset (V)
ICHFILTER	IQUANT	3	Ich Filter
VCHRANGE	IQUANT	2	Vch Range
VCHRANGEMODE	TOGGLE	F	Vch Auto Range
VCHOFFSETENABLE	TOGGLE	T	Vch Offset Enable
VCHOFFSET	QUANT	0	Vch Offset (V)
VCHFILTER	IQUANT	3	Vch Filter
ACHRANGE	IQUANT	2	Ach Range
ACHOFFSETENABLE	TOGGLE	F	Ach Offset Enable
ACHOFFSET	QUANT	0	Ach Offset (V)
ACHFILTER	IQUANT	3	Ach Filter
IERANGELOWERLIMIT	IQUANT	2	I/E Range Lower Limit
IERANGEMODE	TOGGLE	F	I/E AutoRange
IERANGE	IQUANT	11	I/E Range
POSFEEDENABLE	TOGGLE	F	Positive Feedback IR Comp
POSFEEDRESISTANCE	QUANT	0	Positive Feedback Resistance (ohm)
ACHSELECT	IQUANT	0	Ach Select
CABLEID	IQUANT	14	Cable ID
DCCALDATE	LABEL	2019-10-1	DC Calibration Date
ACCALDATE	LABEL	2019-10-1	AC Calibration Date
THERMOSELECT	IQUANT	1	Thermo Select
FRAMEWORKVERSION	QUANT	6.33	Framework Version
INSTRUMENTVERSION	LABEL	3.50	Instrument Version
COMPLIANCEVOLTAGE	IQUANT	0	Compliance Voltage
ZCURVE	TABLE
	Pt	Time	Freq	Zreal	Zimag	Zsig	Zmod	Zphz	Idc	Vdc	IERange
	#	s	Hz	ohm	ohm	V	ohm	°	A	V	#
	0	4	1000078	1.174952	2.005542	1	2.324373	59.63597	-0.1610741	0.550306	11
	1	4	891328.1	1.120504	1.766261	1	2.0917	57.60922	-0.1598153	0.5501984	11
	2	4	794390.6	1.072106	1.555302	1	1.889014	55.42061	-0.1608537	0.5502047	11
	3	5	707953.1	1.030386	1.351122	1	1.699184	52.67032	-0.1596429	0.5503354	11
	4	5	630984.4	1.018499	1.205882	1	1.578446	49.81524	-0.1605391	0.5501453	11
	5	5	562359.4	0.998445	1.056462	1	1.453618	46.61724	-0.1596316	0.5501374	11
	6	6	501234.4	0.985402	0.9254857	1	1.351866	43.20406	-0.1595127	0.5500311	11
	7	6	446765.6	0.98113	0.8045331	1	1.268814	39.35198	-0.1590814	0.550383	11
	8	6	398109.4	0.975419	0.6998624	1	1.200521	35.65941	-0.1594258	0.5504072	11
	9	7	354890.6	0.969185	0.6013827	1	1.140605	31.81975	-0.1593859	0.5502383	11
	10	7	316265.6	0.971576	0.5170959	1	1.100612	28.02298	-0.1593568	0.5504428	11
	11	7	281859.4	0.978274	0.4397859	1	1.072582	24.20643	-0.159116	0.550256	11
	12	8	251203.1	0.979425	0.371773	1	1.047611	20.7859	-0.1592852	0.5503968	11
	13	8	223921.9	0.988645	0.3095941	1	1.035986	17.38795	-0.1591555	0.5504696	11
	14	8	199546.9	0.995264	0.2515245	1	1.026555	14.1829	-0.1586234	0.5505003	11
	15	8	177890.6	1.005296	0.2004058	1	1.025077	11.27412	-0.1587222	0.5502032	11
	16	9	158578.1	1.015618	0.1541469	1	1.027249	8.630283	-0.1583497	0.5502082	11
	17	9	141328.1	1.027531	0.1113366	1	1.033545	6.184077	-0.1582436	0.550422	11
	18	9	125953.1	1.037818	0.0754472	1	1.040557	4.157966	-0.157506	0.5504944	11
	19	10	112265.6	1.051432	0.0377817	1	1.05211	2.057954	-0.1586911	0.5504671	11
	20	10	100078.1	1.067499	0.0061277	1	1.067517	0.3288904	-0.157864	0.5504142	11
	21	10	89203.13	1.081758	-0.023347	1	1.08201	-1.23639	-0.1583987	0.5504622	11
	22	11	79453.13	1.097832	-0.0502966	1	1.098983	-2.623145	-0.1576502	0.5504596	11
	23	11	70828.13	1.11465	-0.0747363	1	1.117152	-3.835891	-0.15832	0.5504634	11
	24	11	63140.62	1.132734	-0.0967869	1	1.136861	-4.883798	-0.1579333	0.5504563	11
	25	12	56296.87	1.149906	-0.1162955	1	1.155771	-5.77496	-0.1582057	0.5504457	11
	26	12	50203.12	1.167009	-0.1346858	1	1.174755	-6.583441	-0.1584191	0.550402	11
	27	12	44671.88	1.1857	-0.1501385	1	1.195168	-7.216635	-0.1585932	0.5504015	11
	28	12	39890.62	1.206038	-0.16469	1	1.21723	-7.775907	-0.1586663	0.5504344	11
	29	13	35484.37	1.224813	-0.1773596	1	1.237588	-8.239468	-0.1583152	0.550441	11
	30	13	31640.63	1.248331	-0.1885929	1	1.262496	-8.591054	-0.1582876	0.5504529	11
	31	13	28265.63	1.268852	-0.1987504	1	1.284323	-8.90236	-0.1576858	0.5504465	11
	32	14	25171.88	1.290106	-0.2075876	1	1.3067	-9.140965	-0.1578651	0.5504581	11
	33	14	22453.13	1.31117	-0.213538	1	1.328445	-9.250017	-0.1573657	0.5504369	11
	34	14	20015.62	1.332723	-0.2208856	1	1.350904	-9.410658	-0.1578191	0.5504299	11
	35	15	17859.38	1.354462	-0.2261734	1	1.373216	-9.480009	-0.1570425	0.550464	11
	36	15	15890.62	1.374244	-0.229802	1	1.393325	-9.493205	-0.1576127	0.5504043	11
	37	15	14203.12	1.394762	-0.2334542	1	1.414164	-9.50205	-0.157078	0.5504568	11
	38	15	12609.37	1.415427	-0.2367597	1	1.435092	-9.496003	-0.157607	0.5504626	11
	39	16	11296.88	1.434745	-0.238769	1	1.454477	-9.44852	-0.1569444	0.5504331	11
	40	16	10078.13	1.453957	-0.2409893	1	1.473794	-9.411054	-0.1574435	0.5504343	11
	41	16	8953.125	1.475312	-0.2435963	1	1.495288	-9.375804	-0.1568793	0.550397	11
	42	17	8015.625	1.49445	-0.244288	1	1.514284	-9.283662	-0.1572722	0.550462	11
	43	17	7031.25	1.517994	-0.2458118	1	1.537768	-9.198174	-0.1568508	0.5504556	11
	44	17	6328.125	1.535887	-0.2472221	1	1.555657	-9.14411	-0.1572108	0.5504657	11
	45	18	5671.875	1.556368	-0.2473271	1	1.575897	-9.029542	-0.1566269	0.5504422	11
	46	18	5015.625	1.575959	-0.2474098	1	1.595261	-8.922041	-0.1571926	0.5504637	11
	47	18	4457.721	1.59791	-0.2468372	1	1.616863	-8.781359	-0.1565298	0.5504426	11
	48	19	3984.375	1.616189	-0.2467923	1	1.634923	-8.682012	-0.157192	0.550397	11
	49	19	3538.603	1.638971	-0.2459199	1	1.657318	-8.533301	-0.1566295	0.5504625	11
	50	19	3170.956	1.657758	-0.2441047	1	1.675634	-8.376602	-0.1570562	0.5504368	11
	51	19	2803.309	1.677332	-0.2413377	1	1.694605	-8.187635	-0.1570864	0.5504501	11
	52	20	2527.573	1.695622	-0.236889	1	1.712089	-7.953105	-0.1571192	0.5504485	11
	53	20	2251.838	1.711287	-0.2350948	1	1.72736	-7.822268	-0.1575304	0.5504226	11
	54	20	1976.103	1.735575	-0.230627	1	1.750831	-7.569244	-0.1572684	0.5504343	11
	55	21	1792.279	1.747609	-0.2276649	1	1.762376	-7.42225	-0.157606	0.5504618	11
	56	21	1577.524	1.770723	-0.2222028	1	1.78461	-7.152491	-0.1571897	0.5504496	11
	57	21	1424.632	1.787176	-0.2169174	1	1.800292	-6.92039	-0.1570362	0.550461	11
	58	22	1265.625	1.806886	-0.2123934	1	1.819326	-6.704164	-0.1568084	0.5504519	11
	59	22	1126.803	1.822801	-0.2068041	1	1.834494	-6.47276	-0.156509	0.5504409	11
	60	22	998.264	1.840593	-0.2043463	1	1.851902	-6.335146	-0.1564295	0.5504016	11
	61	23	894.8864	1.853889	-0.1985751	1	1.864493	-6.113798	-0.1560656	0.550468	11
	62	23	796.875	1.870664	-0.1930973	1	1.880604	-5.893423	-0.1562202	0.5504651	11
	63	23	711.4955	1.88095	-0.1874058	1	1.890263	-5.689806	-0.1557355	0.5504289	11
	64	23	627.7902	1.896527	-0.1840297	1	1.905434	-5.542352	-0.1563216	0.5504481	11
	65	24	564.2361	1.905151	-0.179636	1	1.913601	-5.386472	-0.155723	0.5504313	11
	66	24	505.5147	1.916947	-0.1745701	1	1.924879	-5.203389	-0.156374	0.5504356	11
	67	24	444.5043	1.927996	-0.173407	1	1.935779	-5.139444	-0.1558116	0.5504558	11
	68	25	397.9953	1.940459	-0.1708098	1	1.947962	-5.030522	-0.1563975	0.5504592	11
	69	25	357.5212	1.952122	-0.1680771	1	1.959344	-4.921011	-0.1558981	0.550454	11
	70	25	315.5048	1.965514	-0.166394	1	1.972545	-4.838934	-0.1563497	0.5504597	11
	71	26	282.8664	1.97804	-0.1654634	1	1.984948	-4.78167	-0.1558112	0.5504573	11
	72	26	252.4038	1.988549	-0.1622199	1	1.995155	-4.66369	-0.1563055	0.5504569	11
	73	26	225.3606	2.000605	-0.1610983	1	2.007081	-4.603796	-0.15567	0.5504569	11
	74	27	198.6229	2.014014	-0.1592825	1	2.020302	-4.521945	-0.1561379	0.5504597	11
	75	27	177.5568	2.026216	-0.1570448	1	2.032293	-4.431931	-0.1557083	0.5504524	11
	76	27	158.3615	2.03533	-0.1564064	1	2.041331	-4.394299	-0.1561673	0.550454	11
	77	27	141.1898	2.049675	-0.154947	1	2.055523	-4.323102	-0.1556993	0.5504498	11
	78	28	125.558	2.060614	-0.1529777	1	2.066285	-4.245785	-0.1562448	0.5504571	11
	79	28	111.6071	2.074302	-0.1518688	1	2.079854	-4.187404	-0.155611	0.5504569	11
	80	28	100.4464	2.08572	-0.1466329	1	2.090868	-4.021463	-0.1559851	0.5504541	11
	81	29	89.00317	2.099528	-0.1493878	1	2.104836	-4.06991	-0.1555805	0.5504528	11
	82	29	79.00281	2.106843	-0.1415783	1	2.111594	-3.844456	-0.1559473	0.550455	11
	83	29	71.02273	2.124564	-0.1394797	1	2.129138	-3.756133	-0.155367	0.5504559	11
	84	30	63.3446	2.129572	-0.1473589	1	2.134664	-3.958359	-0.1558694	0.5504553	11
	85	30	54.50582	2.148499	-0.1390832	1	2.152997	-3.703877	-0.1553121	0.5504503	11
	86	30	49.86702	2.149228	-0.1281622	1	2.153046	-3.412607	-0.1556193	0.5504529	11
	87	31	45.95588	2.152024	-0.1225028	1	2.155508	-3.258015	-0.1554103	0.5504608	11
	88	31	39.72458	2.173455	-0.1371658	1	2.177778	-3.611124	-0.1556376	0.5504575	11
	89	31	35.51136	2.179231	-0.149029	1	2.184321	-3.912141	-0.1553163	0.5504568	11
	90	32	31.6723	2.19618	-0.0796058	1	2.197623	-2.075914	-0.1554153	0.5504532	11
	91	32	28.58232	2.235794	-0.0680603	1	2.23683	-1.743615	-0.1551119	0.5504543	11
	92	32	24.93351	2.227206	-0.1167412	1	2.230263	-3.000469	-0.1555722	0.5504528	11
	93	33	22.11085	2.321107	-0.2097145	1	2.330562	-5.162718	-0.1549357	0.5504588	11
	94	33	19.86229	2.132275	-0.2126235	1	2.14285	-5.694524	-0.1558067	0.5504586	11
	95	33	17.75568	2.410618	-0.1702513	1	2.416623	-4.03984	-0.1554409	0.5504575	11
	96	33	15.83615	2.132328	-0.1115236	1	2.135242	-2.993918	-0.1548675	0.5504529	11
	97	34	14.20455	2.172182	-0.1626455	1	2.178262	-4.28212	-0.1553875	0.5504578	11
	98	34	12.40079	2.356375	0.0326631	1	2.356602	0.7941605	-0.1546709	0.5504591	11
	99	34	11.26803	2.442844	-0.0635964	1	2.443672	-1.491287	-0.1554012	0.5504517	11
	100	34	9.93114	2.19348	-0.0681771	1	2.194539	-1.780278	-0.15449	0.5504569	11
	101	35	9.014423	2.206676	-0.0429921	1	2.207095	-1.116138	-0.1551038	0.5504558	11
	102	35	7.944915	2.288001	-0.0983741	1	2.290115	-2.461954	-0.1549101	0.5504504	11
	103	36	7.102273	2.356267	-0.0566663	1	2.356949	-1.377652	-0.1549656	0.5504555	11
	104	36	6.317385	2.255313	-0.0559405	1	2.256007	-1.420867	-0.1550625	0.5504593	11
	105	37	5.634015	2.289333	-0.013373	1	2.289372	-0.334686	-0.1546859	0.550449	11
	106	38	5.008013	2.323766	-0.025359	1	2.323904	-0.6252369	-0.1548418	0.5504553	11
	107	39	4.507212	2.323311	-0.0174617	1	2.323376	-0.4306201	-0.1546536	0.550454	11
	108	40	3.945707	2.357063	0.0046075	1	2.357067	0.1120008	-0.1546426	0.5504524	11
	109	40	3.535068	2.354928	-0.0782702	1	2.356228	-1.903625	-0.1545208	0.5504603	11
	110	41	3.158693	2.302356	-0.0588806	1	2.303109	-1.464967	-0.1546032	0.5504565	11
	111	42	2.817007	2.344528	-0.0290764	1	2.344709	-0.7105361	-0.1543284	0.5504593	11
	112	44	2.504006	2.316057	-0.0350156	1	2.316321	-0.8661666	-0.1541111	0.5504578	11
	113	45	2.253606	2.277035	0.0431664	1	2.277444	1.086042	-0.1540067	0.550455	11
	114	46	1.998082	2.238645	-0.0809485	1	2.240108	-2.07089	-0.1538758	0.5504684	11
	115	48	1.767534	2.39475	0.0906358	1	2.396465	2.16748	-0.1539807	0.550441	11
	116	50	1.584686	2.440182	0.0678122	1	2.441124	1.591829	-0.1538814	0.5504597	11
	117	52	1.420455	2.274031	0.0772354	1	2.275342	1.945252	-0.1536695	0.5504543	11
	118	54	1.266892	2.365651	0.0035812	1	2.365653	0.0867351	-0.1535193	0.5504369	11
	119	56	1.120875	2.271129	-0.0319296	1	2.271354	-0.8054634	-0.1536323	0.5504212	11
	120	59	0.999041	2.269053	0.0231283	1	2.269171	0.5839917	-0.1536799	0.5504387	11
	121	61	0.8837669	2.427448	0.0167711	1	2.427505	0.3958478	-0.1538615	0.5495978	11
	122	64	0.7923428	2.315578	-0.010449	1	2.315602	-0.2585449	-0.1538111	0.549597	11
	123	68	0.7102273	2.355744	0.0050606	1	2.35575	0.1230826	-0.1534756	0.5495862	11
	124	73	0.633446	2.366318	-0.0182831	1	2.366388	-0.4426799	-0.1533611	0.54959	11
	125	77	0.564759	2.361537	-0.0285203	1	2.361709	-0.6919284	-0.1533969	0.549592	11
	126	83	0.5040323	2.383127	-0.0176624	1	2.383193	-0.4246366	-0.153186	0.5495944	11
	127	89	0.4507211	2.306102	0.062657	1	2.306953	1.55635	-0.1533953	0.5495912	11
	128	96	0.400641	2.425488	0.005292	1	2.425493	0.1250097	-0.1531335	0.5495976	11
	129	103	0.3551136	2.250596	0.0368905	1	2.250898	0.9390756	-0.1533046	0.5495965	11
	130	112	0.316723	2.339267	-0.062826	1	2.340111	-1.53843	-0.152795	0.5495912	11
	131	121	0.2823795	2.251333	0.0241353	1	2.251463	0.6142133	-0.1532851	0.5495887	11
	132	132	0.2520161	2.324976	-0.1052115	1	2.327356	-2.591023	-0.1528669	0.5495893	11
	133	144	0.2242823	2.412981	-0.0727692	1	2.414078	-1.727368	-0.153276	0.5495892	11
	134	157	0.2003205	2.457577	0.0021991	1	2.457578	0.0512699	-0.1524702	0.5495874	11
