EXPLAIN
TAG	EISPOT
TITLE	LABEL	Potentiostatic EIS	Test Identifier
DATE	LABEL	2019-10-16	Date
TIME	LABEL	16:50:52	Time
NOTES	NOTES	1	Notes...
	
PSTAT	PSTAT	REF3000-13111	Potentiostat
VDC	POTEN	7.50000E-001	F	DC Voltage (V)
FREQINIT	QUANT	1.00000E+006	Initial Freq. (Hz)
FREQFINAL	QUANT	2.00000E-001	Final Freq. (Hz)
PTSPERDEC	QUANT	2.00000E+001	Points/decade
VAC	QUANT	1.00000E+001	AC Voltage (mV rms)
AREA	QUANT	1.00000E+000	Sample Area (cm^2)
SPEED	SELECTOR	0	Optimize for:
ZGUESS	QUANT	1.00000E+006	Estimated Z (ohms)
EOC	QUANT	0.956694	Open Circuit (V)
SEQUENCER	TOGGLE	TRUE	Run as Sequence
PSTATMODEL	IQUANT	5	Pstat Model
PSTATSECTION	LABEL	REF3000-13111	Pstat Section
PSTATSERIALNO	LABEL	13111	Pstat Serial Number
CTRLMODE	IQUANT	1	Control Mode
IESTAB	IQUANT	0	I/E Stability
CASPEED	IQUANT	1	Control Amp Speed
CONVENTION	IQUANT	1	Current Convention
ICHRANGE	IQUANT	2	Ich Range
ICHRANGEMODE	TOGGLE	F	Ich Auto Range
ICHOFFSETENABLE	TOGGLE	T	Ich Offset Enable
ICHOFFSET	QUANT	0	Ich Offset (V)
ICHFILTER	IQUANT	3	Ich Filter
VCHRANGE	IQUANT	2	Vch Range
VCHRANGEMODE	TOGGLE	F	Vch Auto Range
VCHOFFSETENABLE	TOGGLE	T	Vch Offset Enable
VCHOFFSET	QUANT	0	Vch Offset (V)
VCHFILTER	IQUANT	3	Vch Filter
ACHRANGE	IQUANT	2	Ach Range
ACHOFFSETENABLE	TOGGLE	F	Ach Offset Enable
ACHOFFSET	QUANT	0	Ach Offset (V)
ACHFILTER	IQUANT	3	Ach Filter
IERANGELOWERLIMIT	IQUANT	2	I/E Range Lower Limit
IERANGEMODE	TOGGLE	F	I/E AutoRange
IERANGE	IQUANT	11	I/E Range
POSFEEDENABLE	TOGGLE	F	Positive Feedback IR Comp
POSFEEDRESISTANCE	QUANT	0	Positive Feedback Resistance (ohm)
ACHSELECT	IQUANT	0	Ach Select
CABLEID	IQUANT	14	Cable ID
DCCALDATE	LABEL	2019-10-1	DC Calibration Date
ACCALDATE	LABEL	2019-10-1	AC Calibration Date
THERMOSELECT	IQUANT	1	Thermo Select
FRAMEWORKVERSION	QUANT	6.33	Framework Version
INSTRUMENTVERSION	LABEL	3.50	Instrument Version
COMPLIANCEVOLTAGE	IQUANT	0	Compliance Voltage
ZCURVE	TABLE
	Pt	Time	Freq	Zreal	Zimag	Zsig	Zmod	Zphz	Idc	Vdc	IERange
	#	s	Hz	ohm	ohm	V	ohm	°	A	V	#
	0	4	1000078	1.193192	2.005527	1	2.333633	59.2494	-0.0775992	0.749543	11
	1	4	891328.1	1.133446	1.76681	1	2.099123	57.31895	-0.0788071	0.7495237	11
	2	4	794390.6	1.093265	1.554511	1	1.900456	54.88184	-0.077432	0.7496921	11
	3	5	707953.1	1.054755	1.398685	1	1.751807	52.97989	-0.078481	0.7497603	11
	4	5	630984.4	1.039843	1.205266	1	1.591836	49.21403	-0.0773516	0.7494527	11
	5	5	562359.4	1.019967	1.05678	1	1.468712	46.01554	-0.0780132	0.7496526	11
	6	6	501234.4	1.006108	0.920822	1	1.363879	42.46574	-0.077319	0.749759	11
	7	6	446765.6	0.996757	0.8038023	1	1.280478	38.8833	-0.0776633	0.7498221	11
	8	6	398109.4	0.996344	0.6971025	1	1.215999	34.97896	-0.0772527	0.7498298	11
	9	7	354890.6	0.994339	0.6069564	1	1.164949	31.40039	-0.0777561	0.7498862	11
	10	7	316265.6	0.990978	0.5220813	1	1.120092	27.78181	-0.077398	0.7499277	11
	11	7	281859.4	0.993492	0.4455167	1	1.088812	24.15314	-0.0785178	0.7498258	11
	12	8	251203.1	1.000875	0.3761692	1	1.06923	20.59825	-0.0770375	0.7499116	11
	13	8	223921.9	1.005389	0.3152623	1	1.053659	17.40999	-0.07766	0.7499624	11
	14	8	199546.9	1.016033	0.2584672	1	1.048393	14.27266	-0.0771171	0.7498368	11
	15	8	177890.6	1.020683	0.208689	1	1.041799	11.55544	-0.0774202	0.7500615	11
	16	9	158578.1	1.032931	0.161846	1	1.045534	8.905053	-0.0774086	0.7497759	11
	17	9	141328.1	1.040778	0.1218359	1	1.047885	6.676792	-0.0771186	0.7499928	11
	18	9	125953.1	1.06254	0.0840463	1	1.065859	4.522646	-0.0774002	0.7499576	11
	19	10	112265.6	1.063768	0.0496371	1	1.064925	2.671576	-0.0771923	0.7498901	11
	20	10	100078.1	1.079988	0.0190725	1	1.080156	1.011736	-0.0770753	0.7500274	11
	21	10	89203.13	1.094077	-0.0099243	1	1.094122	-0.5197139	-0.0768074	0.7499819	11
	22	11	79453.13	1.10957	-0.0362223	1	1.110161	-1.869775	-0.0764501	0.7500229	11
	23	11	70828.13	1.121542	-0.0597481	1	1.123132	-3.049446	-0.0760197	0.7500071	11
	24	11	63140.62	1.135954	-0.080581	1	1.138808	-4.057586	-0.0766816	0.7500417	11
	25	12	56296.87	1.152729	-0.1008081	1	1.157129	-4.997898	-0.0765367	0.7499947	11
	26	12	50203.12	1.168488	-0.1184928	1	1.17448	-5.7904	-0.0766966	0.7499803	11
	27	12	44671.88	1.185571	-0.1345911	1	1.193186	-6.476734	-0.0761784	0.7500404	11
	28	12	39890.62	1.200688	-0.1484472	1	1.209829	-7.048007	-0.076982	0.7500129	11
	29	13	35484.37	1.219947	-0.1620264	1	1.230659	-7.565427	-0.076139	0.7500256	11
	30	13	31640.63	1.237738	-0.1741121	1	1.249924	-8.007234	-0.0768722	0.7500166	11
	31	13	28265.63	1.257884	-0.1852569	1	1.271453	-8.3781	-0.0763854	0.750026	11
	32	14	25171.88	1.277976	-0.1958313	1	1.292894	-8.711976	-0.0766092	0.7500387	11
	33	14	22453.13	1.300549	-0.2060134	1	1.316764	-9.001151	-0.0761414	0.7499877	11
	34	14	20015.62	1.319357	-0.2138727	1	1.336579	-9.207765	-0.0762756	0.750035	11
	35	15	17859.38	1.340249	-0.222132	1	1.358533	-9.410618	-0.0759689	0.7500169	11
	36	15	15890.62	1.361271	-0.226905	1	1.380052	-9.463411	-0.0763402	0.7500378	11
	37	15	14203.12	1.382533	-0.2336559	1	1.402138	-9.59267	-0.0760497	0.7500153	11
	38	16	12609.37	1.401745	-0.2383114	1	1.421858	-9.64863	-0.0759235	0.7500401	11
	39	16	11296.88	1.423324	-0.2427401	1	1.443874	-9.67837	-0.0758492	0.7500405	11
	40	16	10078.13	1.441739	-0.2475882	1	1.462843	-9.74429	-0.0758686	0.7500435	11
	41	16	8953.125	1.466796	-0.2513088	1	1.488169	-9.72219	-0.0759954	0.7500322	11
	42	17	8015.625	1.484601	-0.2537488	1	1.50613	-9.6993	-0.0757674	0.7500132	11
	43	17	7031.25	1.510461	-0.2573946	1	1.532235	-9.67076	-0.0760485	0.7500391	11
	44	17	6328.125	1.527608	-0.2603532	1	1.549636	-9.6721	-0.0756373	0.750026	11
	45	18	5671.875	1.549596	-0.2610902	1	1.571437	-9.56389	-0.0759637	0.750042	11
	46	18	5015.625	1.57173	-0.2621056	1	1.593434	-9.467667	-0.0753591	0.7500324	11
	47	18	4457.721	1.59288	-0.2625159	1	1.614367	-9.358553	-0.0758978	0.7500054	11
	48	19	3984.375	1.616686	-0.2633325	1	1.637992	-9.251325	-0.075229	0.75004	11
	49	19	3538.603	1.637393	-0.2630311	1	1.658385	-9.126037	-0.0757997	0.7500091	11
	50	19	3170.956	1.659355	-0.2631954	1	1.680099	-9.012779	-0.0749275	0.7500342	11
	51	20	2803.309	1.677662	-0.2612199	1	1.697876	-8.850163	-0.0759558	0.7500234	11
	52	20	2527.573	1.698732	-0.2609399	1	1.718657	-8.732867	-0.0750615	0.7500411	11
	53	20	2251.838	1.717932	-0.2594779	1	1.737418	-8.589077	-0.0756557	0.7500377	11
	54	20	1976.103	1.742783	-0.2581638	1	1.7618	-8.426124	-0.0752034	0.7500395	11
	55	21	1792.279	1.754527	-0.2564928	1	1.773176	-8.317108	-0.0754714	0.7500219	11
	56	21	1577.524	1.779795	-0.2553928	1	1.798025	-8.165951	-0.0751569	0.7500113	11
	57	21	1424.632	1.794418	-0.2529308	1	1.812157	-8.023223	-0.0756358	0.7500495	11
	58	22	1265.625	1.816126	-0.2527204	1	1.833625	-7.922038	-0.0748309	0.7500386	11
	59	22	1126.803	1.824015	-0.2498005	1	1.841041	-7.798196	-0.0754222	0.7500376	11
	60	22	998.264	1.847449	-0.2492615	1	1.864188	-7.68406	-0.0754073	0.7500407	11
	61	23	894.8864	1.862099	-0.2477609	1	1.878509	-7.578955	-0.0756146	0.7500259	11
	62	23	796.875	1.884208	-0.2491241	1	1.900606	-7.531783	-0.0750627	0.7500389	11
	63	23	711.4955	1.899643	-0.247343	1	1.915678	-7.418462	-0.0753413	0.7500104	11
	64	24	627.7902	1.918788	-0.2470917	1	1.934632	-7.337874	-0.0753716	0.7500207	11
	65	24	564.2361	1.933202	-0.2449594	1	1.94866	-7.221563	-0.0754648	0.7500395	11
	66	24	505.5147	1.953178	-0.2442555	1	1.968391	-7.128143	-0.0752359	0.7500343	11
	67	24	444.5043	1.96967	-0.2440657	1	1.984733	-7.063631	-0.0749142	0.7500428	11
	68	25	397.9953	1.988478	-0.2432408	1	2.0033	-6.974065	-0.0754985	0.750043	11
	69	25	357.5212	2.006357	-0.2423606	1	2.020942	-6.887751	-0.0749533	0.7500409	11
	70	25	315.5048	2.024721	-0.2411021	1	2.039026	-6.790756	-0.0754045	0.7500445	11
	71	26	282.8664	2.042672	-0.2423962	1	2.057004	-6.767426	-0.0750379	0.7500408	11
	72	26	252.4038	2.060614	-0.2416014	1	2.074729	-6.687243	-0.0753716	0.750038	11
	73	26	225.3606	2.080152	-0.2409432	1	2.094059	-6.607107	-0.0750366	0.7500398	11
	74	27	198.6229	2.099724	-0.2394565	1	2.113334	-6.506012	-0.0754124	0.7500401	11
	75	27	177.5568	2.11782	-0.2390932	1	2.131274	-6.441184	-0.075105	0.7500368	11
	76	27	158.3615	2.139353	-0.2394579	1	2.152713	-6.386537	-0.0753215	0.7500358	11
	77	28	141.1898	2.157555	-0.2349636	1	2.170311	-6.215172	-0.0752958	0.7500358	11
	78	28	125.558	2.169884	-0.2357914	1	2.182658	-6.201737	-0.0748753	0.750039	11
	79	29	111.6071	2.19225	-0.2297744	1	2.204259	-5.983446	-0.0752137	0.7500389	11
	80	29	100.4464	2.210584	-0.2297073	1	2.222486	-5.932458	-0.0749489	0.7500346	11
	81	29	89.00317	2.231385	-0.2260303	1	2.242804	-5.784102	-0.0749259	0.7500356	11
	82	30	79.00281	2.237969	-0.216902	1	2.248455	-5.535766	-0.0749787	0.7500357	11
	83	30	71.02273	2.264879	-0.2244781	1	2.275976	-5.660249	-0.0749541	0.7500388	11
	84	30	63.3446	2.269919	-0.2259966	1	2.281142	-5.685719	-0.0751114	0.7500387	11
	85	31	54.50582	2.314481	-0.2069346	1	2.323714	-5.109152	-0.0746644	0.7500364	11
	86	31	49.86702	2.321914	-0.2046632	1	2.330917	-5.037271	-0.0749778	0.7500367	11
	87	31	45.95588	2.315032	-0.2316458	1	2.326593	-5.714086	-0.0745941	0.7500435	11
	88	32	39.72458	2.338654	-0.2057745	1	2.347689	-5.028418	-0.0749478	0.7500371	11
	89	32	35.51136	2.330348	-0.2064931	1	2.339478	-5.063779	-0.0746762	0.7500366	11
	90	32	31.6723	2.454357	-0.2192407	1	2.464129	-5.104521	-0.0750861	0.7500349	11
	91	33	28.58232	2.486675	-0.2156814	1	2.496011	-4.957136	-0.074424	0.7500318	11
	92	33	24.93351	2.410375	-0.1770074	1	2.416866	-4.200012	-0.0749505	0.7500334	11
	93	33	22.11085	2.379019	-0.0776646	1	2.380287	-1.869793	-0.0743616	0.7500387	11
	94	33	19.86229	2.602712	-0.1692615	1	2.60821	-3.720863	-0.073793	0.7500373	11
	95	34	17.75568	2.562685	0.0953309	1	2.564457	2.130399	-0.0750292	0.7500347	11
	96	34	15.83615	2.490723	-0.3699261	1	2.518044	-8.447905	-0.0743068	0.7500373	11
	97	34	14.20455	2.661481	-0.3658617	1	2.68651	-7.827133	-0.0743584	0.7500384	11
	98	34	12.40079	2.339547	-0.0804769	1	2.34093	-1.970111	-0.074541	0.7500378	11
	99	35	11.26803	2.263866	0.0828684	1	2.265382	2.096365	-0.074243	0.7500429	11
	100	35	9.93114	2.516008	-0.099978	1	2.517993	-2.275553	-0.0746569	0.7500431	11
	101	35	9.014423	2.450619	-0.1722042	1	2.456662	-4.019548	-0.0745377	0.7500374	11
	102	36	7.944915	2.514464	-0.0475493	1	2.514914	-1.083353	-0.0737771	0.7500393	11
	103	36	7.102273	2.546236	-0.1398443	1	2.550073	-3.143638	-0.0740375	0.7500422	11
	104	37	6.317385	2.542564	-0.0244083	1	2.542681	-0.5500157	-0.0745774	0.7500467	11
	105	38	5.634015	2.549706	-0.0455023	1	2.550112	-1.022398	-0.0746329	0.7500441	11
	106	39	5.008013	2.564469	-0.0223916	1	2.564567	-0.5002651	-0.0746723	0.7500432	11
	107	39	4.507212	2.510294	-0.0626791	1	2.511077	-1.430312	-0.0747573	0.7500533	11
	108	40	3.945707	2.564782	0.03703	1	2.565049	0.827171	-0.07448	0.750048	11
	109	41	3.535068	2.509007	-0.0909596	1	2.510655	-2.076247	-0.0744687	0.7500468	11
	110	42	3.158693	2.490689	-0.087683	1	2.492232	-2.016227	-0.07427	0.7500412	11
	111	43	2.817007	2.467645	-0.0864804	1	2.46916	-2.007151	-0.0743867	0.7500468	11
	112	44	2.504006	2.561865	-0.0731278	1	2.562908	-1.63505	-0.0740278	0.7500473	11
	113	46	2.253606	2.58285	-0.1226199	1	2.585759	-2.718057	-0.0741753	0.7500535	11
	114	47	1.998082	2.631916	-0.0850105	1	2.633289	-1.850001	-0.0741596	0.7500264	11
	115	49	1.767534	2.46178	-0.0401544	1	2.462107	-0.9344747	-0.0741537	0.7500417	11
	116	50	1.584686	2.502692	0.1303103	1	2.506082	2.980589	-0.0741932	0.7500556	11
	117	52	1.420455	2.43193	-0.1136629	1	2.434584	-2.675928	-0.0739815	0.750029	11
	118	55	1.266892	2.653246	0.0395638	1	2.653541	0.8543003	-0.0740042	0.7500495	11
	119	57	1.120875	2.59248	0.0366359	1	2.592739	0.8096278	-0.0738863	0.7500513	11
	120	60	0.999041	2.526453	-0.006608	1	2.526462	-0.1498572	-0.0738524	0.7500364	11
	121	62	0.8837669	2.514585	-0.0629411	1	2.515373	-1.433838	-0.0738635	0.7491827	11
	122	65	0.7923428	2.616096	-0.0502582	1	2.616579	-1.100583	-0.0736642	0.7491801	11
	123	69	0.7102273	2.645134	-0.1098113	1	2.647413	-2.377238	-0.0735506	0.7491779	11
	124	73	0.633446	2.521371	-0.0336601	1	2.521596	-0.7648477	-0.0735427	0.7491783	11
	125	78	0.564759	2.639383	-0.061698	1	2.640104	-1.339099	-0.0735086	0.7491778	11
	126	84	0.5040323	2.692667	-0.0309564	1	2.692845	-0.6586757	-0.0728439	0.7491775	11
	127	90	0.4507211	2.654601	-0.0356101	1	2.65484	-0.7685468	-0.073057	0.7491779	11
	128	96	0.400641	2.586032	0.0093796	1	2.586049	0.2078127	-0.0728801	0.7491739	11
	129	104	0.3551136	2.570869	0.0771448	1	2.572026	1.718776	-0.0727297	0.7491791	11
	130	112	0.316723	2.593817	-0.0711171	1	2.594792	-1.570539	-0.0723772	0.7491783	11
	131	122	0.2823795	2.655391	-0.0274427	1	2.655532	-0.5921138	-0.0723001	0.7491774	11
	132	133	0.2520161	2.697078	0.0165099	1	2.697129	0.3507269	-0.0718266	0.7491781	11
	133	145	0.2242823	2.572318	-0.0035949	1	2.572321	-0.0800736	-0.0717438	0.7491743	11
	134	158	0.2003205	2.594487	-0.0158522	1	2.594536	-0.3500706	-0.0714523	0.7491741	11
