EXPLAIN
TAG	EISPOT
TITLE	LABEL	Potentiostatic EIS	Test Identifier
DATE	LABEL	2019-10-16	Date
TIME	LABEL	16:47:08	Time
NOTES	NOTES	1	Notes...
	
PSTAT	PSTAT	REF3000-13111	Potentiostat
VDC	POTEN	0.00000E+000	T	DC Voltage (V)
FREQINIT	QUANT	1.00000E+006	Initial Freq. (Hz)
FREQFINAL	QUANT	2.00000E-001	Final Freq. (Hz)
PTSPERDEC	QUANT	2.00000E+001	Points/decade
VAC	QUANT	1.00000E+001	AC Voltage (mV rms)
AREA	QUANT	1.00000E+000	Sample Area (cm^2)
SPEED	SELECTOR	0	Optimize for:
ZGUESS	QUANT	1.00000E+006	Estimated Z (ohms)
EOC	QUANT	0.95617	Open Circuit (V)
SEQUENCER	TOGGLE	TRUE	Run as Sequence
PSTATMODEL	IQUANT	5	Pstat Model
PSTATSECTION	LABEL	REF3000-13111	Pstat Section
PSTATSERIALNO	LABEL	13111	Pstat Serial Number
CTRLMODE	IQUANT	1	Control Mode
IESTAB	IQUANT	0	I/E Stability
CASPEED	IQUANT	1	Control Amp Speed
CONVENTION	IQUANT	1	Current Convention
ICHRANGE	IQUANT	2	Ich Range
ICHRANGEMODE	TOGGLE	F	Ich Auto Range
ICHOFFSETENABLE	TOGGLE	T	Ich Offset Enable
ICHOFFSET	QUANT	0	Ich Offset (V)
ICHFILTER	IQUANT	3	Ich Filter
VCHRANGE	IQUANT	2	Vch Range
VCHRANGEMODE	TOGGLE	F	Vch Auto Range
VCHOFFSETENABLE	TOGGLE	T	Vch Offset Enable
VCHOFFSET	QUANT	0	Vch Offset (V)
VCHFILTER	IQUANT	3	Vch Filter
ACHRANGE	IQUANT	2	Ach Range
ACHOFFSETENABLE	TOGGLE	F	Ach Offset Enable
ACHOFFSET	QUANT	0	Ach Offset (V)
ACHFILTER	IQUANT	3	Ach Filter
IERANGELOWERLIMIT	IQUANT	2	I/E Range Lower Limit
IERANGEMODE	TOGGLE	F	I/E AutoRange
IERANGE	IQUANT	11	I/E Range
POSFEEDENABLE	TOGGLE	F	Positive Feedback IR Comp
POSFEEDRESISTANCE	QUANT	0	Positive Feedback Resistance (ohm)
ACHSELECT	IQUANT	0	Ach Select
CABLEID	IQUANT	14	Cable ID
DCCALDATE	LABEL	2019-10-1	DC Calibration Date
ACCALDATE	LABEL	2019-10-1	AC Calibration Date
THERMOSELECT	IQUANT	1	Thermo Select
FRAMEWORKVERSION	QUANT	6.33	Framework Version
INSTRUMENTVERSION	LABEL	3.50	Instrument Version
COMPLIANCEVOLTAGE	IQUANT	0	Compliance Voltage
ZCURVE	TABLE
	Pt	Time	Freq	Zreal	Zimag	Zsig	Zmod	Zphz	Idc	Vdc	IERange
	#	s	Hz	ohm	ohm	V	ohm	°	A	V	#
	0	4	1000078	1.366104	1.806824	1	2.265139	52.90778	-0.0003269	0.955011	10
	1	4	891328.1	1.281596	1.611369	1	2.058882	51.50315	-0.0007325	0.954873	10
	2	5	794390.6	1.211347	1.434875	1	1.877825	49.82833	-0.0009855	0.955095	10
	3	5	707953.1	1.125432	1.285971	1	1.708894	48.80883	-0.0007561	0.955154	10
	4	5	630984.4	1.115369	1.126068	1	1.584953	45.27347	-6.820778E-005	0.95525	10
	5	6	562359.4	1.081812	0.996584	1	1.470883	42.65181	-0.0001543	0.955303	10
	6	6	501234.4	1.061525	0.8782116	1	1.377712	39.60135	-0.0006258	0.955324	10
	7	6	446765.6	1.039545	0.7722397	1	1.294993	36.6073	-0.0005631	0.955393	10
	8	6	398109.4	1.028192	0.6768257	1	1.230963	33.35563	-0.0008356	0.955428	10
	9	7	354890.6	1.018004	0.5950487	1	1.179158	30.30736	-0.0003644	0.955316	10
	10	7	316265.6	1.010655	0.5134973	1	1.133624	26.93437	-0.0009556	0.955466	10
	11	7	281859.4	1.016069	0.4472248	1	1.110138	23.75678	-0.000525	0.955511	10
	12	8	251203.1	1.012839	0.3868614	1	1.084207	20.90472	-0.0002889	0.955603	10
	13	8	223921.9	1.013523	0.3302862	1	1.065982	18.04972	-0.0003106	0.95558	10
	14	8	199546.9	1.014426	0.2817659	1	1.052831	15.52311	-0.0003408	0.955617	10
	15	9	177890.6	1.020266	0.2369572	1	1.047422	13.07516	-0.0004323	0.955714	10
	16	9	158578.1	1.023367	0.1982616	1	1.042395	10.96435	-0.000162	0.955721	10
	17	9	141328.1	1.028228	0.1626799	1	1.041018	8.990461	-1.80105E-006	0.955714	10
	18	10	125953.1	1.026742	0.1246967	1	1.034287	6.924596	-0.0001992	0.955753	10
	19	10	112265.6	1.042064	0.1022819	1	1.047071	5.60581	3.762105E-005	0.955638	10
	20	10	100078.1	1.051763	0.0806245	1	1.054849	4.383521	-0.0002384	0.955773	10
	21	10	89203.13	1.061561	0.0566302	1	1.063071	3.053613	-7.756484E-005	0.955762	10
	22	11	79453.13	1.069094	0.035333	1	1.069677	1.892905	3.290125E-005	0.955773	10
	23	11	70828.13	1.078463	0.0157359	1	1.078578	0.8359462	0.0001321	0.955761	10
	24	11	63140.62	1.083303	-0.0006082	1	1.083303	-0.0321689	0.0004106	0.955779	10
	25	12	56296.87	1.093973	-0.0164479	1	1.094096	-0.861378	-0.0001844	0.955778	10
	26	12	50203.12	1.099722	-0.0297117	1	1.100124	-1.54761	5.897959E-005	0.955779	10
	27	12	44671.88	1.110938	-0.0426263	1	1.111755	-2.197341	-0.0006353	0.955796	10
	28	13	39890.62	1.120585	-0.0542575	1	1.121898	-2.772034	-0.0005582	0.955806	10
	29	13	35484.37	1.133943	-0.0654003	1	1.135827	-3.300884	-0.0008518	0.955807	10
	30	13	31640.63	1.141487	-0.074551	1	1.143919	-3.736704	0.0000961	0.9558	10
	31	14	28265.63	1.14711	-0.0828414	1	1.150098	-4.130586	-0.0003272	0.9558	10
	32	14	25171.88	1.157386	-0.0905365	1	1.160922	-4.472851	-0.000164	0.955804	10
	33	14	22453.13	1.166741	-0.0973913	1	1.170799	-4.771585	-0.0002769	0.955814	10
	34	14	20015.62	1.177697	-0.1053994	1	1.182404	-5.114126	-0.0004201	0.955815	10
	35	15	17859.38	1.184375	-0.1104562	1	1.189515	-5.328058	2.964289E-005	0.955815	10
	36	15	15890.62	1.198188	-0.1176813	1	1.203954	-5.609375	-0.0004052	0.955812	10
	37	15	14203.12	1.20932	-0.12338	1	1.215597	-5.825407	-0.0003876	0.955824	10
	38	16	12609.37	1.223663	-0.1293981	1	1.230486	-6.036397	-0.0006853	0.955826	10
	39	16	11296.88	1.234866	-0.1346044	1	1.242181	-6.220862	-0.0003456	0.955809	10
	40	16	10078.13	1.247133	-0.1395163	1	1.254913	-6.383117	-0.0008475	0.955832	10
	41	17	8953.125	1.258399	-0.1440929	1	1.266622	-6.532202	-7.502674E-005	0.955826	10
	42	17	8015.625	1.267222	-0.1477322	1	1.275804	-6.649502	-0.0008145	0.955834	10
	43	17	7031.25	1.283008	-0.1526315	1	1.292055	-6.784238	-0.0001211	0.955825	10
	44	17	6328.125	1.291786	-0.1558172	1	1.301149	-6.877878	-0.0005786	0.955803	10
	45	18	5671.875	1.307016	-0.1593689	1	1.316696	-6.951952	-0.0002669	0.955816	10
	46	18	5015.625	1.317498	-0.1634053	1	1.327593	-7.070117	-0.0004641	0.955818	10
	47	18	4457.721	1.331887	-0.166896	1	1.342303	-7.142385	-0.0006574	0.955821	10
	48	19	3984.375	1.34278	-0.1698245	1	1.353476	-7.208064	-0.0004633	0.955841	10
	49	19	3538.603	1.356083	-0.1730204	1	1.367076	-7.270988	-0.0001972	0.955824	10
	50	19	3170.956	1.366784	-0.1759215	1	1.378059	-7.334331	0.0001038	0.955804	10
	51	20	2803.309	1.37843	-0.1790856	1	1.390015	-7.402407	-0.0004862	0.955821	10
	52	20	2527.573	1.392817	-0.1830185	1	1.404791	-7.485871	-0.0003007	0.955831	10
	53	20	2251.838	1.406984	-0.1866878	1	1.419316	-7.558228	-0.0001499	0.955825	10
	54	21	1976.103	1.420797	-0.1914644	1	1.433639	-7.674857	0.0002509	0.95581	10
	55	21	1792.279	1.432541	-0.195069	1	1.445762	-7.754267	-0.0001388	0.955822	10
	56	21	1577.524	1.444109	-0.1987464	1	1.457721	-7.836141	0.0005179	0.955814	10
	57	21	1424.632	1.456732	-0.203559	1	1.470886	-7.954815	-0.0001821	0.955793	10
	58	22	1265.625	1.47225	-0.2087907	1	1.486981	-8.071717	-0.0001006	0.955822	10
	59	22	1126.803	1.488926	-0.214593	1	1.504311	-8.201339	-0.0002228	0.955809	10
	60	22	998.264	1.506196	-0.2195566	1	1.522114	-8.293536	-0.0002934	0.955824	10
	61	23	894.8864	1.521663	-0.2257161	1	1.538312	-8.437453	-0.0005303	0.955823	10
	62	23	796.875	1.53781	-0.2326058	1	1.555303	-8.601232	-0.0001425	0.9558	10
	63	23	711.4955	1.548657	-0.2365881	1	1.566625	-8.685909	-0.0006733	0.955832	10
	64	24	627.7902	1.57357	-0.2459803	1	1.59268	-8.884566	-0.0001893	0.955817	10
	65	24	564.2361	1.585807	-0.2483476	1	1.605136	-8.900591	-0.0003171	0.955831	10
	66	24	505.5147	1.607079	-0.2561229	1	1.62736	-9.055173	0.0003995	0.955817	10
	67	25	444.5043	1.626263	-0.262583	1	1.647326	-9.172048	-0.0002649	0.955838	10
	68	25	397.9953	1.649573	-0.2708209	1	1.671657	-9.323438	-0.0002205	0.955839	10
	69	25	357.5212	1.665265	-0.2754473	1	1.687891	-9.392115	-0.0003696	0.955838	10
	70	25	315.5048	1.691579	-0.2835338	1	1.715176	-9.51518	-0.0002448	0.955835	10
	71	26	282.8664	1.708579	-0.28952	1	1.732935	-9.61746	-4.098212E-005	0.955829	10
	72	26	252.4038	1.737363	-0.2950767	1	1.762243	-9.63923	-0.0002892	0.955831	10
	73	26	225.3606	1.753079	-0.3028534	1	1.779047	-9.8014	0.000284	0.955831	10
	74	27	198.6229	1.782792	-0.308166	1	1.80923	-9.807	-0.0004728	0.955839	10
	75	27	177.5568	1.810577	-0.3145781	1	1.837702	-9.85644	2.852481E-005	0.955827	10
	76	27	158.3615	1.831845	-0.3172739	1	1.859117	-9.8261	-0.0002726	0.955835	10
	77	28	141.1898	1.857763	-0.3223107	1	1.885515	-9.8425	1.690202E-005	0.955828	10
	78	28	125.558	1.89026	-0.3269621	1	1.918329	-9.81347	-0.0004447	0.955837	10
	79	28	111.6071	1.910254	-0.3311751	1	1.938748	-9.83544	0.0005507	0.955825	10
	80	29	100.4464	1.933394	-0.3277911	1	1.960985	-9.62253	-2.41233E-005	0.955831	10
	81	29	89.00317	1.967009	-0.3301826	1	1.994528	-9.52885	0.0003487	0.955825	10
	82	29	79.00281	1.996433	-0.332523	1	2.023936	-9.456295	-3.963115E-005	0.95583	10
	83	30	71.02273	2.02648	-0.3327308	1	2.053614	-9.324285	0.0004951	0.95582	10
	84	30	63.3446	2.041906	-0.3233603	1	2.067351	-8.998747	-7.167259E-005	0.955829	10
	85	30	54.50582	2.06707	-0.3254337	1	2.092531	-8.947045	0.0002716	0.955821	10
	86	31	49.86702	2.097773	-0.3124467	1	2.120914	-8.471477	-0.0001237	0.955822	10
	87	31	45.95588	2.104917	-0.3534661	1	2.134388	-9.5324	-0.0000954	0.955831	10
	88	31	39.72458	2.157928	-0.3186735	1	2.181331	-8.40048	-0.000344	0.955838	10
	89	32	35.51136	2.156361	-0.3196167	1	2.179919	-8.431018	-0.0001899	0.955835	10
	90	32	31.6723	2.254931	-0.3039418	1	2.275323	-7.676622	-3.147768E-005	0.955829	10
	91	32	28.58232	2.154144	-0.3542345	1	2.183075	-9.33833	0.000559	0.955822	10
	92	33	24.93351	2.25566	-0.2809572	1	2.27309	-7.099998	0.0002503	0.955825	10
	93	33	22.11085	2.406954	-0.1647484	1	2.412586	-3.915608	0.0004423	0.955824	10
	94	33	19.86229	2.291832	-0.3757076	1	2.322423	-9.309877	0.0004631	0.955822	10
	95	33	17.75568	2.410488	-0.3517347	1	2.436016	-8.30192	-2.795119E-005	0.95583	10
	96	33	15.83615	2.202389	-0.257543	1	2.217396	-6.669762	-0.0001407	0.955828	10
	97	34	14.20455	2.265177	-0.2656191	1	2.280697	-6.688072	-0.0004238	0.955834	10
	98	34	12.40079	2.57979	-0.1600926	1	2.584753	-3.551018	0.0001929	0.955824	10
	99	34	11.26803	2.446201	-0.0822351	1	2.447583	-1.925414	-0.0003644	0.95584	10
	100	35	9.93114	2.307951	-0.2607832	1	2.322638	-6.446702	7.902842E-005	0.955831	10
	101	35	9.014423	2.454831	-0.2766651	1	2.470372	-6.430232	-0.000135	0.955836	10
	102	35	7.944915	2.402594	-0.117991	1	2.405489	-2.811527	-6.537938E-005	0.955833	10
	103	36	7.102273	2.477082	-0.0210043	1	2.477171	-0.4858254	0.0002541	0.955827	10
	104	36	6.317385	2.461955	-0.1820026	1	2.468673	-4.22796	-8.507322E-005	0.955833	10
	105	37	5.634015	2.462185	-0.072619	1	2.463255	-1.689377	-0.0005322	0.955839	10
	106	38	5.008013	2.505828	-0.1421276	1	2.509856	-3.246271	-0.0002849	0.955837	10
	107	39	4.507212	2.499714	-0.2152695	1	2.508966	-4.922035	-0.0001645	0.955829	10
	108	40	3.945707	2.457384	-0.1015709	1	2.459482	-2.366855	-0.000168	0.95583	10
	109	41	3.535068	2.517651	-0.1277204	1	2.520888	-2.904124	-0.0001207	0.955835	10
	110	42	3.158693	2.495571	-0.0926122	1	2.497289	-2.125307	-0.0002477	0.955844	10
	111	43	2.817007	2.485802	-0.0447759	1	2.486205	-1.031938	4.211414E-005	0.955834	10
	112	44	2.504006	2.486543	-0.1257631	1	2.489722	-2.89541	0.0001631	0.955829	10
	113	45	2.253606	2.549367	-0.0645848	1	2.550185	-1.451201	4.828399E-005	0.955818	10
	114	47	1.998082	2.433222	-0.0166037	1	2.433279	-0.3909661	-0.0003117	0.95585	10
	115	48	1.767534	2.622363	-0.1486149	1	2.626571	-3.243605	5.224403E-005	0.955824	10
	116	50	1.584686	2.447579	-0.1598184	1	2.452791	-3.735912	-0.0001325	0.955827	10
	117	52	1.420455	2.638405	-0.1903363	1	2.645261	-4.126209	-0.0001869	0.955845	10
	118	54	1.266892	2.43749	-0.0768958	1	2.438703	-1.806919	-4.851881E-005	0.95582	10
	119	57	1.120875	2.459584	-0.0844151	1	2.461033	-1.96567	-1.926909E-005	0.955815	10
	120	59	0.999041	2.530504	-0.1358698	1	2.534148	-3.07342	-5.537258E-005	0.95583	10
	121	61	0.8837669	2.506268	-0.0057168	1	2.506274	-0.1306904	-0.0005979	0.954987	10
	122	65	0.7923428	2.5018	-0.0624673	1	2.502579	-1.430318	-1.285151E-006	0.954973	10
	123	69	0.7102273	2.476957	-0.0500524	1	2.477463	-1.157629	-9.310372E-005	0.954968	10
	124	73	0.633446	2.523962	0.0697987	1	2.524927	1.584077	-3.04317E-005	0.95497	10
	125	78	0.564759	2.565311	0.0012601	1	2.565311	0.0281435	-0.0001904	0.954978	10
	126	83	0.5040323	2.548158	-0.0288511	1	2.548321	-0.6486933	-0.0004153	0.954977	10
	127	89	0.4507211	2.609498	-0.0258686	1	2.609626	-0.5679687	-0.000387	0.954978	10
	128	96	0.400641	2.455892	-0.0455762	1	2.456315	-1.063168	-0.0004422	0.954975	10
	129	103	0.3551136	2.481925	0.010588	1	2.481948	0.2444258	-0.0004401	0.95497	10
	130	112	0.316723	2.610832	0.0661449	1	2.61167	1.451266	-0.0007386	0.954976	10
	131	121	0.2823795	2.556993	-0.0808285	1	2.55827	-1.810561	-0.0005035	0.954973	10
	132	132	0.2520161	2.583617	-0.0934175	1	2.585305	-2.070777	-0.0007752	0.954976	10
	133	144	0.2242823	2.671594	-0.0569289	1	2.672201	-1.220729	-0.0007743	0.954975	10
	134	158	0.2003205	2.546523	0.0007033	1	2.546523	0.0158245	-0.0009201	0.95498	10
